! File created by SignalIntegrity v1.2.0: Signal and Power Integrity Tools
! https://github.com/TeledyneLeCroy/SignalIntegrity
# MHz S MA R 50.0
0.0 0.0291079895892462 -0.4953689844487629 0.9590298845226085 0.0152621749109424 0.0122599807381664 0.033546462493218 0.0140632270763811 -179.9774060257597
0.9590298632386225 0.0152621738467828 0.025804650343225 -0.5761730742353686 0.015556954083971 -179.97823216334896 0.0090915489287895 0.0268828644329254
0.0122683363115239 0.0335311184524456 0.0155569270149225 -179.9782239439822 0.0274494219528255 -0.5271259067394195 0.9604695613800216 0.0152799205203087
0.0140631916920866 -179.97739693800196 0.0090998911174375 0.0268761646058648 0.9604695826232654 0.0152799217884624 0.0250284009091611 -0.5948713408175632
10.0 0.1035371525100013 24.49877291473779 0.9081591850749541 -20.232978705209998 0.0324297065323871 27.98544700096317 0.0256462416878223 162.5862260619027
0.9081591850824721 -20.23297870599657 0.1018275356280042 25.411110504762213 0.0269485871781379 161.4136923176452 0.0320255334880294 33.16151752181731
0.0324297065500978 27.985447376462357 0.0269485872098488 161.41369234638853 0.1024432622570045 25.259816189823656 0.9095541671570935 -20.199985497112323
0.0256462417188897 162.5862260946113 0.0320255334932577 33.16151730343323 0.9095541671495955 -20.199985496323077 0.10113150382219 25.682732362992294
20.0 0.1317090578852105 13.058896945238429 0.8874301334694635 -38.18989984221508 0.0457984866364059 30.671118186214485 0.024479883338452 138.29988026715972
0.8874301494297735 -38.18990015522021 0.130425343762283 13.460390184553898 0.0255775059301897 136.55068784243707 0.0476986236601843 33.304866040862194
0.0457997243021618 30.678966070754157 0.0255771033115845 136.55694194419846 0.1309171743381768 13.720029038395959 0.8886393904438069 -38.118741844715466
0.0244795712103006 138.30642965113134 0.0477004446682878 33.311919253345195 0.8886393771067352 -38.118741321073706 0.1297552864498719 13.54576008383678
30.0 0.1443901783149785 1.8393791566811657 0.8750701233915235 -55.93129173995308 0.0594366901014061 23.84003988663783 0.0232118819260685 116.89510869534588
0.8750701250610494 -55.93129206408551 0.1433906291109329 1.8147804235311722 0.0240662856550835 114.62014078651342 0.0622983405778463 24.351678715543766
0.0594378068266671 23.840272454102752 0.024067560120423 114.61893330733028 0.1438430047730256 2.4660443040578905 0.8760823271493711 -55.81643882620102
0.0232131344333836 116.8937293751718 0.0622994488901281 24.351788045827067 0.8760823255406371 -55.816438634187286 0.1426003831288224 1.7392908825533206
40.0 0.1460642353821053 -8.94770295780671 0.8668158034742572 -73.62285233733122 0.0685789364109099 12.815579084598312 0.0216885088589488 95.99194317784041
0.8668158077258177 -73.62285226058198 0.1451726935771331 -9.438508226178541 0.0223197909590559 93.30233754208734 0.0714886194752368 11.989746862418624
0.0685794941874019 12.816900113959445 0.0223208008290599 93.3038584047038 0.1457008603775118 -8.326118475400486 0.8676473497266156 -73.46005859929669
0.0216895455572184 95.99337526016146 0.0714893915465805 11.9909610978515 0.8676473464293585 -73.46005876628598 0.1441003211226897 -9.642581512079262
50.0 0.1384512585272307 -18.98258186400868 0.8609532605486365 -91.32097260914762 0.0712263779551932 0.4647205881438085 0.019695964314618 75.8100849424914
0.8609532634450893 -91.32097267091785 0.137397628180305 -20.04636280581735 0.0201342674754345 72.70310149704132 0.0736639077315166 -1.330156237020318
0.0712264053102314 0.4649746575591136 0.0201347585930009 72.70431286975476 0.1382168068360266 -18.344287474901297 0.8616310862406079 -91.10743749279747
0.0196964781728988 75.81124354335464 0.0736639872306549 -1.3299457922942342 0.861631083819477 -91.10743748098935 0.1359432429905739 -20.336156990828645
60.0 0.1230494357316544 -27.527218530544822 0.8564733589564906 -109.05293141887744 0.0668054567913191 -11.678955566406753 0.0173022863228381 57.41127758440622
0.856473360413949 -109.0529315489045 0.1214202246685979 -29.33433414239928 0.0175538425391427 53.77576881703856 0.0684708792034166 -14.385038891301779
0.066805281653203 -11.678927645755898 0.0175536036700874 53.775932726063424 0.122904973245905 -26.84840892233396 0.8570217995026307 -108.78696753920457
0.0173020510488603 57.411493687839034 0.0684707893984775 -14.385058218257827 0.8570217982146968 -108.78696739078897 0.119565808728788 -29.649654419333494
70.0 0.1022369871313575 -33.00085809595309 0.8525956583086854 -126.82873894896288 0.0558218558268896 -21.858728225190156 0.014871590533769 42.42717531614109
0.8525956461851347 -126.82873899251652 0.0994012518618629 -35.7486287344911 0.0149005192054505 38.14417013722713 0.0564772968411672 -25.71912838330066
0.0558220173429881 -21.858764891977273 0.0148997052531905 38.1430907647749 0.102163464523429 -32.25197174776019 0.8530341304668052 -126.50912798612701
0.0148707571259493 42.42633616513472 0.0564770915390423 -25.719388093844195 0.8530341427483551 -126.50912786594232 0.0972005813577772 -35.971137959272504
80.0 0.0804762844623269 -32.20167578017724 0.8486831701839846 -144.6405134859237 0.0402267327903169 -25.883498172816967 0.0130645173500727 32.2299457999042
0.8486831699011866 -144.640513468744 0.0755198715435084 -35.72795316616288 0.0128024316103246 27.50790337120181 0.0394660121647707 -31.526545191127667
0.0402268641548733 -25.883551549439755 0.0128013142503826 27.50810409740062 0.0804836644008291 -31.342242914905054 0.8490288791093815 -144.26623098489895
0.0130634091964858 32.23055621157633 0.0394660696705672 -31.526532929018217 0.8490288801454806 -144.26623091504013 0.0731341614266686 -35.51524400525268
90.0 0.0660456613557978 -21.101881757275443 0.8443141763999833 -162.4640625165851 0.0259206999067579 -10.014479384559761 0.0125775665818808 25.249725335944788
0.8443141769825208 -162.46406245499787 0.0584188989392872 -23.16133044682268 0.0120027260961244 20.974641018853 0.0228124699650907 -16.100735442101776
0.0259207417784617 -10.014760526811923 0.0120019756144852 20.9762155717893 0.0661982722970237 -20.114425062232765 0.844584579002844 -162.03419135052172
0.0125768448514055 25.25148181969135 0.0228124967365543 -16.10087172887397 0.8445845792207405 -162.034191362509 0.0563924105907029 -21.718648337576905
100.0 0.0680101452178283 -4.998294074191673 0.8393732330248713 179.73343042891779 0.0284709255842792 28.52431852424033 0.013468521251319 16.288857484248126
0.8393732328701682 179.733430415425 0.0597963382200894 -2.5688838551908466 0.0126774586521759 13.178214875415488 0.0249000805807484 32.17923527995672
0.0284707905365165 28.52476968563108 0.012677920316959 13.177180408423336 0.0683869869133649 -3.983689042533532 0.8395871932096332 -179.78036859367802
0.0134689686315154 16.28777423904239 0.0248999381744174 32.179723638393625 0.839587192882776 -179.78036861242902 0.0590026372016114 -0.2619651765098709
110.0 0.0832622466931118 2.5025864034876686 0.8338034595128455 161.99092043339334 0.0466775772937723 39.64730338908992 0.0150010441194705 2.266459425437676
0.8338034594458599 161.99092041724742 0.076741531046979 6.8675624304193175 0.0141187263098979 0.122189601516681 0.0446618628422947 43.573779556786654
0.0466776122329845 39.647580389876175 0.0141190643676825 0.1209013460603132 0.083962845592756 3.5054241993788096 0.8339688839479048 162.5341308331293
0.0150013687895827 2.265196861287333 0.0446618972001368 43.574052519278524 0.8339688834830608 162.53413083076336 0.0770664429390467 8.752451055779451
120.0 0.1012946799277385 0.7010461130260386 0.82838671820119 144.3140387272589 0.0670780144743084 34.24451091375421 0.016380096964912 -16.062021067349175
0.8283867180270507 144.31403870889562 0.0965998272302187 4.949284324021857 0.0154822886201704 -17.689460205026833 0.065965418878945 36.96466046462392
0.0670781107953903 34.24464498943235 0.0154825296797043 -17.690721573233557 0.1023323862829258 1.6846604963822076 0.8285309666848494 144.91492836001072
0.0163803269445333 -16.063238426282677 0.0659655109420687 36.964784651357796 0.8285309663431439 144.91492837182358 0.0975207959885563 6.342152653302972
130.0 0.1152545847980465 -6.125193181135661 0.8235428944002331 126.69636635550847 0.0847140459082916 23.61511929504619 0.0170672725173278 -36.92435265392512
0.8235428940751441 126.69636634336344 0.1120155331116905 -2.4479173206552995 0.0161904215387275 -38.35162464826568 0.0841315194954861 25.502284596597992
0.0847141513511783 23.61518433837402 0.0161905927164342 -38.35280421625585 0.1166216933880012 -5.135792383899689 0.8236944841852876 127.35497467632453
0.0170674340337827 -36.92548668807902 0.084131618797247 25.502342187886114 0.8236944840540352 127.35497469118114 0.1132460082031105 -1.3520197711682937
140.0 0.1218355364918829 -15.267651969107959 0.8195756309026541 109.1149901569422 0.0974361736561244 10.98767801963346 0.0168051479773523 -58.79938241204694
0.8195756304965024 109.11499015773829 0.1197092144002469 -12.236639174791321 0.0159648937508151 -60.21707868577608 0.0971873428209867 12.282156145136701
0.0974362688275817 10.987710253971727 0.0159650137296933 -60.21820209791805 0.1235245827198948 -14.253387121470782 0.8197600021120811 109.83079359567161
0.0168052588876022 -58.80046016841702 0.0971874320381524 12.282183781667191 0.819760002142412 109.83079360387472 0.1211253258715489 -11.311187274765564
150.0 0.1196761093520709 -25.207303395515996 0.8165657461806958 91.53762017710994 0.1040220808534682 -2.5009672947905504 0.0155557035182445 -80.32894015698128
0.816565745808149 91.53762019246786 0.1183394018167096 -22.8897999827768 0.0147536224712663 -81.85551739029873 0.1039737174151434 -1.6901291529155624
0.1040221620336316 -2.5009510826221804 0.0147537010131013 -81.8566392555506 0.1216772938234692 -24.1644316021761 0.8168040438535327 92.30973221871064
0.0155557730839388 -80.33001188421365 0.1039737943446177 -1.6901152157338861 0.8168040439341536 92.30973221600186 0.1198961311477407 -22.07224668596886
160.0 0.1087094154840943 -34.74585127280145 0.8143370119902694 73.93234691184121 0.103847504095484 -16.276419273413627 0.0134869144098194 -99.82012499520692
0.8143370117539535 73.9323469383688 0.1077813098356026 -33.31690378374149 0.0127094936422341 -101.5021449281611 0.1038801822577104 -15.939383754773598
0.1038475733133604 -16.276411686649723 0.0127095311064236 -101.50333781630196 0.1109955296602553 -33.69832668841315 0.8146466892340234 74.75957052282698
0.0134869428866006 -99.82125318666375 0.1038802499000407 -15.93937662203127 0.814646689255365 74.75957051058326 0.1094581839244959 -32.59717051798917
170.0 0.090125366704316 -42.17630479795015 0.8124938946591398 56.2775860627446 0.0968730890183527 -29.845619160624874 0.0110393034186858 -114.50004702005725
0.8124938946138136 56.27758609387482 0.0890356153164225 -42.0314705481541 0.0102555820550859 -116.15770674179949 0.0968638569743599 -30.070131417917047
0.0968731488243889 -29.8456175139561 0.0102555670188356 -116.1590374561371 0.0926263723100859 -41.21857429572658 0.8128878400443075 57.158362083675755
0.0110392803707117 -114.50127927660581 0.0968639183949783 -30.07012875901516 0.8128878399402193 57.15836206707767 0.0907885676450609 -41.4748247315755
180.0 0.0671095720641763 -43.613203491191584 0.8105300775502517 38.57007328765203 0.0837615561543454 -42.50916239157073 0.0090955574583741 -120.53156734135081
0.8105300776911825 38.570073316173655 0.064776765693507 -45.47415136820863 0.0082812943510271 -121.259593774436 0.0835537487527544 -43.51169774755959
0.0837616074895254 -42.509166685782844 0.0082812059822118 -121.26093553090544 0.069645312318302 -43.07905439855062 0.8110130935016115 39.50245873796974
0.0090954656832096 -120.53277832619543 0.083553805060281 -43.51169981538296 0.8110130932646928 39.50245872334239 0.066460489462956 -45.350936806082856
190.0 0.0480141685022146 -29.606875491819373 0.8079965485563647 20.827682038611474 0.0660288382099399 -52.89080567858246 0.0088642773785282 -119.54032795751966
0.807996548829014 20.827682058966907 0.0423045289309082 -32.619501133139586 0.0080821221522475 -118.268906516011 0.0653600815424104 -55.116075336828274
0.0660288799693643 -52.89081825268727 0.0080819699324542 -118.269712947832 0.0499847372575734 -30.460083924619173 0.8085609137636508 21.8095843869583
0.0088641271273195 -119.54107932372395 0.0653601315781875 -55.1160848645566 0.8085609134368931 21.809584379318036 0.0433753393457882 -33.793627624569154
200.0 0.0496021494492207 -0.9629510367301216 0.8046795396827632 3.084249840631479 0.046316145451686 -57.53562722533687 0.0105224293741248 -123.54072657422826
0.8046795400071859 3.0842498503045976 0.0410689836106305 3.631117535920829 0.0098347969977627 -121.37681866128494 0.0446366645534862 -61.823353969804494
0.0463161743599086 -57.5356542573993 0.0098346333378436 -121.3770626150576 0.0499922190852404 -2.545564082136528 0.8053028416253716 4.113893152616382
0.0105222671618294 -123.54098286030073 0.0446367048242034 -61.82337936252043 0.8053028412782507 4.113893154196114 0.0405207718992295 2.2124564114056264
210.0 0.0713943542481807 10.961631986076222 0.8007005196440855 -14.623323275104651 0.0298051532356041 -46.63046066440285 0.0129191069150587 -136.75336787873616
0.800700519943005 -14.623323275453574 0.0638096644509989 19.083521255002903 0.0122892854540298 -134.74081891383412 0.0258862925120205 -52.650409536407295
0.0298051624844664 -46.63051046410578 0.0122891360284615 -134.74084839560504 0.0709380560422606 10.519079717869138 0.801348579484052 -13.546799065173884
0.0129189577352261 -136.75341505540297 0.0258863136553076 -52.65047698479645 0.8013485791847255 -13.546799055128602 0.0626344954080268 19.21474443016826
220.0 0.0972055052670244 7.920822146216349 0.7964722941525905 -32.27032656768737 0.0271970042884037 -14.689046876555182 0.015050191375211 -155.55776536453948
0.7964722943724643 -32.27032657509096 0.0907236255522343 16.051752288344034 0.0144365176647847 -153.87967607678152 0.0215807983755428 -10.723558877896897
0.0271969940304676 -14.689078685455309 0.014436386072785 -153.87964453639734 0.096805714002078 8.202331410413393 0.7971069466386156 -31.146422805050616
0.0150500596118073 -155.55774646478832 0.021580786179808 -10.72362644729437 0.7971069464331729 -31.14642278945263 0.0897209044189539 16.814116189072852
230.0 0.1188477709223173 -1.1471061821223025 0.7925276900758464 -49.85444737039888 0.0387182780889827 0.6462401057955764 0.0164014482753374 -176.8336787190132
0.7925276901952407 -49.85444738093887 0.1131897823148165 6.746886534054437 0.0157846741604979 -175.4400262095693 0.0344381944605602 8.710481478945239
0.0387182695678542 0.6462357250115099 0.0157845591590749 -175.43997781289616 0.1189158166312648 -0.4931314160099366 0.7931173528783647 -48.68115370052437
0.016401333013172 -176.83363907561622 0.0344381779553115 8.710465865781975 0.7931173527827075 -48.68115368314504 0.112667365741363 7.804688233299961
240.0 0.1326814590937165 -12.74665013438148 0.7893096170322098 -67.39643870740733 0.0524284843902071 -1.674669167632725 0.0167732391213279 161.26864426988448
0.7893096170584375 -67.39643871747535 0.1277276541536107 -4.9064958873460975 0.0161485249480831 162.46113073463567 0.0491525175611178 5.7337777229997
0.0524284839702473 -1.6746691570444898 0.0161484247745305 162.46118668497522 0.1334329422261579 -11.877382379575582 0.7898396548876202 -66.1705039772642
0.0167731386802038 161.2686935975323 0.0491525082425491 5.733772412934868 0.7898396548908704 -66.17050396153411 0.1278815761032458 -3.6461572598384047
250.0 0.1368877121762837 -25.489641466178274 0.7870132446216322 -84.9322612672388 0.0633355309391268 -10.602974179954355 0.0161761259290758 140.0736767037918
0.7870132445803987 -84.93226127435005 0.13262279717138 -17.46885119676422 0.0155459041327025 141.16301894313642 0.060658142922587 -3.849395521490448
0.0633355378479765 -10.602975266228414 0.0155458173172922 141.16308614190447 0.1384451311846673 -24.487958669402804 0.7874936560519818 -83.64982897921259
0.0161760388358531 140.07373792023884 0.0606581411160408 -3.8493998362195345 0.7874936561263053 -83.64982896746415 0.1336081616538418 -16.0269596113708
260.0 0.1307639120176165 -38.66616816687349 0.7855221702127707 -102.5007142846497 0.0698598041768565 -22.228793111652816 0.0148053040827639 120.93982615480473
0.7855221701364685 -102.50071428770384 0.1272440134184372 -30.180634266135076 0.0141770853026507 122.07205272614002 0.0675998794053425 -15.836093607041171
0.0698598164491257 -22.228796304631118 0.0141770110730324 122.07214377085039 0.1331796667871287 -37.59630434393383 0.785990786336065 -101.15825490362968
0.0148052295098541 120.93991014825967 0.0675998836925877 -15.836099009346722 0.7859907864478246 -101.15825489685494 0.1291832274980494 -28.552227280272266
270.0 0.1145394332847716 -51.67953962306941 0.7844389586327146 -120.13069127467631 0.0714966008479635 -35.10572405330187 0.0130714608589579 105.58202664463245
0.7844389585506409 -120.13069127380365 0.1119053793902461 -42.30815747699609 0.0124624583734737 107.0119695730985 0.0695806686337217 -28.850432118910824
0.0714966163680229 -35.10572944533651 0.0124623974098658 107.01210623601715 0.1177904137261517 -50.628002251182345 0.784958226356499 -118.72605854321793
0.0130713993267557 105.58215277975287 0.0695806772215064 -28.850439177052294 0.7849582264753007 -118.72605854123645 0.1148817968625133 -40.48494326868134
280.0 0.0894014202409488 -63.5184753854106 0.7831968840945308 -137.8310876955736 0.0683827228329135 -48.4909482322354 0.011644453238582 95.59855031009798
0.7831968840268121 -137.8310876916816 0.0879763811366433 -52.46748968966767 0.0110946149477913 97.6730713182305 0.0667857289548349 -42.21713450478027
0.0683827396252559 -48.490955741833844 0.0110945702730202 97.67327232801384 0.0933641220722623 -62.68110168549954 0.7838429068662134 -136.36443961328655
0.0116444074378145 95.59873614503537 0.0667857400443055 -42.2171434110489 0.7838429069704647 -136.36443961515448 0.0920253192307658 -50.49790197565894
290.0 0.0578079871285802 -71.02937267233487 0.7812350617594593 -155.5860571531432 0.0612520497814426 -61.80320315467488 0.0112917834146487 89.89987038694635
0.781235061715442 -155.58605714741313 0.0585206289926744 -56.40844095977725 0.0108605701672648 92.65319601069098 0.0599601286655002 -55.41312737034525
0.0612520661524236 -61.803212708090314 0.0108605450251557 92.65343397901249 0.0621679286748152 -71.13414667254152 0.7820797653240281 -154.06028867912752
0.0112917564830814 89.90009467458871 0.059960140632268 -55.413138246335755 0.7820797654026594 -154.06028868361466 0.0635853540237104 -54.81667361632652
300.0 0.0264781839575162 -55.293435832255234 0.778196791753101 -173.35809377348127 0.0513906171379312 -74.42081851152984 0.0122697709539222 83.30319222058588
0.7781967917330613 -173.3580937669458 0.0328228861882586 -35.71770047675342 0.0119787665660829 86.19504150305 0.050366698887312 -67.89359727193431
0.051390631782002 -74.42083006684287 0.0119787586228702 86.19525245325426 0.0297290150397446 -61.570064755418066 0.7792878047323198 -171.77851391753953
0.0122697611818971 83.30339704985067 0.0503667104112579 -67.89361026090194 0.779287804783153 -171.7785139235283 0.0377981333068109 -39.06931545597966
310.0 0.0312701114921197 14.409958135913133 0.774076839284149 168.90039951384298 0.0404570339517476 -85.60681959716831 0.0140568467115108 72.22839872066194
0.7740768392834736 168.9003995205349 0.0397878544032122 12.905929425326235 0.0138720449834814 74.83642167454298 0.0396001226502628 -79.0642249465413
0.0404570460432813 -85.60683305268573 0.0138720480151507 74.83658082478033 0.0275832837264801 9.1689881839779 0.7754229846348004 170.52721045543092
0.014056848356369 72.2285566641989 0.0396001328224054 -79.06424020191119 0.7754229846609495 170.5272104487228 0.0396272330287119 5.375695717949106
