! File created by SignalIntegrity v1.2.0: Signal and Power Integrity Tools
! https://github.com/TeledyneLeCroy/SignalIntegrity
# MHz S MA R 50.0
0.0 0.026810336641177 -0.5399561002558647 0.0004799112418333 0.0188457214570803 0.0127348004658126 0.032783994642265 0.0005013577485104 -179.99367053856807
0.0004799112439649 0.0188456307959029 0.025804650343225 -0.5761730742353686 0.0005005052030233 0.0068154095510274 0.0090915489287895 0.0268828644329254
0.0127427795757541 0.0327706233364136 0.0005005024754137 0.0068153788102578 0.0263356901278701 -0.5541996737734796 0.0004793385881847 -179.97893834995082
0.0005013579618177 -179.99367053124826 0.0090998911174375 0.0268761646058648 0.0004793370938968 -179.97893816920876 0.0250284009091611 -0.5948713408175632
10.0 0.1028614876652982 26.067277216450986 0.000424464946911 -57.18477177756999 0.0336287483260613 29.038950273632064 0.0005659967198685 120.10607424751854
0.0004244649468331 -57.18477177605382 0.1018275356280042 25.411110504762213 0.0004379594515628 -28.8556690332972 0.0320255334880294 33.16151752181731
0.0336287483477454 29.038950638069203 0.0004379594515901 -28.85566903426566 0.1016313701223349 26.069152110847888 0.000540629723511 117.8913053931818
0.0005659967198992 120.10607424627881 0.0320255334932577 33.16151730343323 0.0005406297235778 117.89130539323219 0.10113150382219 25.682732362992294
20.0 0.1329541280618079 14.444624803621938 0.0003777749148186 -114.31425146966816 0.0482760095954933 30.924071001209928 0.0007082730479532 82.14656032865018
0.0003777754712467 -114.31445457962135 0.130425343762283 13.460390184553898 0.0003361773369828 -53.735325442404836 0.0476986236601843 33.304866040862194
0.0482769493149968 30.930304021611096 0.0003361776357943 -53.73563578275522 0.1308241228412254 14.555209599335246 0.0006761195201349 74.49497023353052
0.0007082734589604 82.14656301010653 0.0477004446682878 33.311919253345195 0.0006761200612452 74.4950919394994 0.1297552864498719 13.54576008383678
30.0 0.1472885963886401 2.852003169731156 0.0003712314531442 -173.12149305645232 0.0626866958056849 23.313152302938494 0.0007959885522031 57.344765769767974
0.0003712308296296 -173.12152092104336 0.1433906291109329 1.8147804235311722 0.0002078821278053 -73.07758580783027 0.0622983405778463 24.351678715543766
0.0626876938386292 23.313125153039103 0.0002078819321762 -73.0775472505799 0.1444690158655431 3.252624383983687 0.000775390246914 42.618598834137316
0.0007959886210052 57.34474771852482 0.0622994488901281 24.351788045827067 0.0007753911384011 42.618567933244584 0.1426003831288224 1.7392908825533206
40.0 0.1499570538064086 -8.460171257943742 0.0004150569726517 133.89202635083313 0.0721066195200187 11.727537632419875 0.0008101288137937 41.428229688147304
0.0004150571908145 133.8919132387812 0.1451726935771331 -9.438508226178541 8.75568460903e-05 -69.21619121455485 0.0714886194752368 11.989746862418624
0.0721075078348638 11.728548146197761 8.75569112053e-05 -69.21671944711422 0.1468548147312197 -7.66315217855634 0.0008083726251713 17.296779430827357
0.0008101283468338 41.42819391223962 0.0714893915465805 11.9909610978515 0.0008083732446334 17.29678285564453 0.1441003211226897 -9.642581512079262
50.0 0.1424841727385251 -19.156745316539766 0.0004777891635579 90.15092276989014 0.0745698976608253 -1.1369317914633186 0.0007864208776152 33.66132319124597
0.0004777891866659 90.150899371348 0.137397628180305 -20.04636280581735 9.08651941783e-05 -3.5156037363646937 0.0736639077315166 -1.330156237020318
0.0745699522258841 -1.136821283822991 9.08650918691e-05 -3.5156014990278144 0.139554206781304 -17.881368089084408 0.000778333618462 -3.4038477311759836
0.0007864207359648 33.66131552219793 0.0736639872306549 -1.3299457922942342 0.0007783337626656 -3.4038425323696653 0.1359432429905739 -20.336156990828645
60.0 0.1262459211624082 -28.52062616062691 0.0005268167883001 53.35409486840687 0.0694842731242137 -13.879535100193586 0.0007906211145381 33.209563737900275
0.0005268167097298 53.354097979771765 0.1214202246685979 -29.33433414239928 0.0001780549959027 -2.1551456291008986 0.0684708792034166 -14.385038891301779
0.0694841358399421 -13.87955318096541 0.000178055175361 -2.155125564474845 0.1239421639382813 -26.662015959889153 0.0006996429389755 -19.844933660332796
0.0007906213963568 33.20954962314288 0.0684707893984775 -14.385058218257827 0.000699642944642 -19.844951363301035 0.119565808728788 -29.649654419333494
70.0 0.1034980838600285 -34.95660902202765 0.0005441425890706 20.788912720429124 0.057298688890972 -24.867750389076804 0.0008853040366035 35.53387838473653
0.0005441423566453 20.78887302407977 0.0994012518618629 -35.7486287344911 0.0002456470229329 -16.82196071375622 0.0564772968411672 -25.71912838330066
0.0572986598539983 -24.867809775230196 0.0002456474851738 -16.821908555529188 0.1023023247810569 -32.36403037630125 0.0005931642710769 -31.052609147678094
0.0008853045382935 35.5338577650693 0.0564770915390423 -25.719388093844195 0.0005931642805411 -31.052655864981165 0.0972005813577772 -35.971137959272504
80.0 0.0786694113329027 -34.79925451636894 0.0005229282284864 -9.395266912092977 0.0398652069928631 -29.86923581747347 0.0010802665102627 34.81160378773755
0.0005229278340551 -9.39531175384602 0.0755198715435084 -35.72795316616288 0.0002829274179038 -33.495437155264945 0.0394660121647707 -31.526545191127667
0.0398653439158881 -29.869257056315167 0.0002829278897736 -33.4954536203116 0.0791683238526874 -31.410924085945894 0.0004913991088809 -34.65540516259965
0.001080266802889 34.81158058769179 0.0394660696705672 -31.526532929018217 0.0004913991045244 -34.6554409239228 0.0731341614266686 -35.51524400525268
90.0 0.0611046616675108 -21.76831228330618 0.0004638769562921 -38.622226618348485 0.0233693018420444 -11.691377331291926 0.0013364970927629 29.487889906460516
0.0004638767719538 -38.62226907949532 0.0584188989392872 -23.16133044682268 0.0002911911316517 -49.21059358247447 0.0228124699650907 -16.100735442101776
0.0233693232996729 -11.69155745034289 0.0002911913380148 -49.21063352032113 0.0637347209315326 -18.616681780851312 0.0004434026328746 -29.619191946730634
0.0013364970313487 29.487878296452376 0.0228124967365543 -16.10087172887397 0.0004434025553707 -29.61921479246869 0.0563924105907029 -21.718648337576905
100.0 0.0634771052933858 -0.9280195250371024 0.000373458408255 -68.68468790887525 0.0277019945691045 35.05370652280751 0.0016063199485552 20.884882105435356
0.0003734585494443 -68.68463113209948 0.0597963382200894 -2.5688838551908466 0.0002776191409919 -62.35974518783228 0.0249000805807484 32.17923527995672
0.0277019036800952 35.0543071780519 0.000277618851747 -62.35973440847063 0.0670547133272884 -0.0008243819171173 0.000483633024307 -23.300612780095346
0.0016063199422512 20.884892854588873 0.0248999381744174 32.179723638393625 0.0004836333722584 -23.300584005124282 0.0590026372016114 -0.2619651765098709
110.0 0.082432568966878 8.229751289878843 0.0002644366399876 -103.65397172883162 0.0492661568440956 44.143761201694375 0.0018513033161022 10.57276994564941
0.0002644366711203 -103.65388771675674 0.076741531046979 6.8675624304193175 0.0002534799664838 -71.6427989650368 0.0446618628422947 43.573779556786654
0.0492662550145309 44.14403201872909 0.0002534797814316 -71.64277427584332 0.0854745124116885 8.060870927338627 0.00058539739159 -23.97295024579791
0.0018513033679951 10.572776410019546 0.0446618972001368 43.574052519278524 0.0005853978210143 -23.972940238963268 0.0770664429390467 8.752451055779451
120.0 0.1045579576158557 6.114944837644566 0.0001700078922464 -156.42656873829907 0.0722486169024042 36.97318275405284 0.002047423455418 -0.2941240766110124
0.0001700077045255 -156.4264540563101 0.0965998272302187 4.949284324021857 0.0002318517960247 -76.42069066965433 0.065965418878945 36.96466046462392
0.0722487597266519 36.97329452123252 0.000231851711217 -76.42066641247864 0.1068403847649731 5.905215912944857 0.0007004875441267 -31.005389979384404
0.0020474234979983 -0.2941203544003048 0.0659655109420687 36.964784651357796 0.000700487989736 -31.00539095182209 0.0975207959885563 6.342152653302972
130.0 0.1222659496064366 -1.3137451454315248 0.0001803951957701 128.31948652506986 0.0920874987532131 25.30784761826518 0.0021846291403448 -10.900077503759826
0.0001803948157357 128.3194992443006 0.1120155331116905 -2.4479173206552995 0.000223196006229 -77.73654331511695 0.0841315194954861 25.502284596597992
0.0920876357252789 25.30789466480629 0.0002231959634664 -77.73653170072818 0.1239397277428839 -1.296647316552174 0.0007985977663375 -41.373254997775696
0.0021846291458497 -10.900074927439537 0.084131618797247 25.502342187886114 0.0007985981912296 -41.37326185061278 0.1132460082031105 -1.3520197711682937
140.0 0.1322262499281064 -11.009271826129673 0.0002987141482759 78.92347368285438 0.1067857927222209 11.986113800720176 0.0022667008827151 -20.664929793728984
0.0002987138148676 78.92344600097852 0.1197092144002469 -12.236639174791321 0.0002316938116919 -78.36248375169023 0.0971873428209867 12.282156145136701
0.1067859097409516 11.98613397441128 0.0002316937497451 -78.36248157313821 0.1334694036953077 -10.71107983835587 0.0008662392464906 -53.08542990688946
0.0022667008560754 -20.66492726847356 0.0971874320381524 12.282183781667191 0.0008662396291834 -53.08543983237055 0.1211253258715489 -11.311187274765564
150.0 0.1331111095712524 -21.48891216295902 0.0004453482050011 47.17237774966079 0.1151563554491487 -2.063446321330086 0.0023091601515026 -29.19655433234148
0.0004453479368192 47.172352156125136 0.1183394018167096 -22.8897999827768 0.0002556964926278 -80.83880437611954 0.1039737174151434 -1.6901291529155624
0.1151564533305738 -2.063437186338157 0.0002556963934528 -80.83880109813805 0.1340819346152609 -20.891127482611356 0.000899678433738 -65.03016697833768
0.0023091601139935 -29.19655131678349 0.1039737943446177 -1.6901152157338861 0.0008996787660778 -65.03017830947958 0.1198961311477407 -22.07224668596886
160.0 0.1248170680791151 -31.752347075345966 0.0005905192454059 21.280445581609673 0.1165321867914905 -16.42044923775574 0.0023358836882447 -36.30796462189467
0.0005905190375731 21.280424543225735 0.1077813098356026 -33.31690378374149 0.0002917587852692 -86.28349861776587 0.1038801822577104 -15.939383754773598
0.1165322707720596 -16.42044468180441 0.0002917586639407 -86.28348948875228 0.1256477316532933 -30.825677565104083 0.0009005816307447 -76.53503504847299
0.0023358836643904 -36.30796103203536 0.1038802499000407 -15.93937662203127 0.0009005819158024 -76.5350468486009 0.1094581839244959 -32.59717051798917
170.0 0.1083143621168735 -40.61411313846838 0.000719556653594 -2.2860152534195124 0.1107621666015339 -30.768384298479347 0.0023745286108505 -42.07689449830805
0.0007195565037684 -2.2860331705685653 0.0890356153164225 -42.0314705481541 0.0003361952937414 -94.96050987471729 0.0968638569743599 -30.070131417917047
0.1107622413440563 -30.768382094659003 0.0003361951703943 -94.96049602526125 0.1091215515717145 -39.29030401640859 0.0008736366780271 -87.09527907217308
0.0023745286203457 -42.076890612129404 0.0968639183949783 -30.07012875901516 0.0008736369254392 -87.09529103609522 0.0907885676450609 -41.4748247315755
180.0 0.0860066403780578 -45.79527141343279 0.0008205249844568 -24.743153078369318 0.0983127271707552 -44.690607215698066 0.0024510413332143 -46.88440692699212
0.0008205248896029 -24.743169240828845 0.064776765693507 -45.47415136820863 0.0003837307055741 -106.79239609362938 0.0835537487527544 -43.51169774755959
0.0983127950218757 -44.69060719913554 0.000383730592828 -106.79238016411603 0.0869542211620652 -43.92863292214728 0.0008256092283816 -96.19807408289431
0.0024510413852069 -46.88440325253562 0.083553805060281 -43.51169981538296 0.0008256094484883 -96.19808654235949 0.066460489462956 -45.350936806082856
190.0 0.0632064643669636 -41.990232545000104 0.0008832456216544 -46.54658069459549 0.0803783924883246 -57.425858595836004 0.0025843928119177 -51.35384590588916
0.0008832455765206 -46.54659612690627 0.0423045289309082 -32.619501133139586 0.0004268064797589 -121.43834666649492 0.0653600815424104 -55.116075336828274
0.0803784534763329 -57.425862019305086 0.0004268063827816 -121.4383306494317 0.0646963666621934 -39.41668877744617 0.0007659784066387 -103.20005923118045
0.0025843929018288 -51.35384293768957 0.0653601315781875 -55.1160848645566 0.0007659786045127 -103.20007316494419 0.0433753393457882 -33.793627624569154
200.0 0.0516931406072451 -22.248671533355402 0.0009007166621359 -67.8461208278586 0.0589590678893263 -67.22664215269047 0.002782756024439 -56.1791491747465
0.0009007166592181 -67.84613633967668 0.0410689836106305 3.631117535920829 0.000457066636686 -138.36354097163834 0.0446366645534862 -61.823353969804494
0.058959120344422 -67.2266526851466 0.0004570665559629 -138.36352599890137 0.0544288042278207 -19.788994325527298 0.000709165280491 -107.37960300587939
0.0027827561366952 -56.17914713480689 0.0446367048242034 -61.82337936252043 0.0007091654505316 -107.37961979135913 0.0405207718992295 2.2124564114056264
210.0 0.0621426798699034 -2.0568151019969707 0.0008704036491456 -88.68459327822598 0.0372155456451274 -68.80200709673419 0.0030412635946294 -61.92131437083664
0.0008704036793725 -88.68460961879391 0.0638096644509989 19.083521255002903 0.0004679720408721 -156.99987099050446 0.0258862925120205 -52.650409536407295
0.0372155858994698 -68.80203718088835 0.0004679719739428 -156.9998576417596 0.066056792089704 -0.9805418911911893 0.0006757864648591 -108.53626841080292
0.0030412637112441 -61.92131314847973 0.0258863136553076 -52.65047698479645 0.0006757865891194 -108.53628871088819 0.0626344954080268 19.21474443016826
220.0 0.0842347615478642 1.953244331337703 0.0007940638664558 -109.12752765728851 0.0224572624768587 -44.693180937830526 0.0033417576158872 -68.86667546000126
0.0007940639203365 -109.12754568484654 0.0907236255522343 16.051752288344034 0.0004567455596939 -176.91893801161146 0.0215807983755428 -10.723558877896897
0.0224572783794406 -44.69326123430465 0.0004567455023257 -176.9189265659238 0.0891013040811485 2.3906687534133453 0.0006861313689728 -108.10185136912169
0.0033417577246758 -68.86667477557891 0.021580786179808 -10.72362644729437 0.0006861314269991 -108.1018734767392 0.0897209044189539 16.814116189072852
230.0 0.1057584818736759 -3.559912150939996 0.0006760832488868 -129.37479536060167 0.0275250089459686 -7.256829070919709 0.0036560114237573 -76.99928101688168
0.0006760833180229 -129.37481632913745 0.1131897823148165 6.746886534054437 0.0004246573238097 162.0194955717505 0.0344381944605602 8.710481478945239
0.0275250005014228 -7.256880728951081 0.0004246572713285 162.01950497869294 0.1117060691814784 -3.3359026696816723 0.0007452637095309 -108.87634078270386
0.0036560115206625 -76.99928061446023 0.0344381779553115 8.710465865781975 0.0007452636961201 -108.87636143181729 0.112667365741363 7.804688233299961
240.0 0.1211573484949535 -13.114932534985117 0.0005215267885382 -149.94176547825006 0.0422632254241885 -0.9636439939040549 0.003952369804589 -86.07512814434506
0.0005215268675995 -149.94179179811488 0.1277276541536107 -4.9064958873460975 0.0003760225058608 139.51083607340908 0.0491525175611178 5.7337777229997
0.0422632174763626 -0.9636677186285775 0.0003760224545227 139.51084329463788 0.1283004398904689 -13.052445087918992 0.0008380397433145 -112.69602906152673
0.0039523698908699 -86.07512787235056 0.0491525082425491 5.733772412934868 0.0008380396710842 -112.69604625495295 0.1278815761032458 -3.6461572598384047
250.0 0.1279815800087756 -24.366225999865534 0.0003354405547895 -172.45209883863706 0.0558226201489944 -7.516103845041443 0.0042032491923477 -95.73283356549831
0.0003354406458068 -172.45213702671737 0.13262279717138 -17.46885119676422 0.0003171770585597 114.5429131006592 0.060658142922587 -3.849395521490448
0.0558226179681135 -7.516120268982818 0.0003171770066693 114.54291770079661 0.1363145577529751 -24.546617551851448 0.0009411263718861 -119.51578439242758
0.0042032492706996 -95.7328333620269 0.0606581411160408 -3.8493998362195345 0.0009411262596329 -119.51579790631457 0.1336081616538418 -16.0269596113708
260.0 0.1253589691357442 -36.14637966422611 0.000128341422806 150.99116411319605 0.0656054345283178 -18.21711806108522 0.0043909391673781 -105.58327743591342
0.0001283415664044 150.99108686996397 0.1272440134184372 -30.180634266135076 0.0002569823156468 84.89746092354129 0.0675998794053425 -15.836093607041171
0.0656054378663779 -18.21713264933711 0.000256982264775 84.89746160926939 0.1347162620139551 -36.74866118568404 0.001034486955272 -128.42317581000407
0.0043909392396621 -105.58327728589562 0.0675998836925877 -15.836099009346722 0.0010344868200919 -128.42318616499745 0.1291832274980494 -28.552227280272266
270.0 0.1135549766095937 -47.56307707047133 0.000141935770966 6.146187300452788 0.0709626971536048 -30.5966786789739 0.0045106533537287 -115.2659865091784
0.0001419358224319 6.146266935588052 0.1119053793902461 -42.30815747699609 0.0002105043561954 46.98593276942347 0.0695806686337217 -28.850432118910824
0.0709627046496516 -30.59669310401098 0.0002105043137869 46.985927078922984 0.1235590145824193 -48.922654938409124 0.0011050705852886 -138.45971406496847
0.004510653420648 -115.26598641167703 0.0695806772215064 -28.850439177052294 0.0011050704407361 -138.45972186835115 0.1148817968625133 -40.48494326868134
280.0 0.0939181478406251 -57.366566004622584 0.0003911324789131 -29.166578774839603 0.0719703345751603 -43.72613754018837 0.0045705494531774 -124.48691621554808
0.000391132473789 -29.166552408090457 0.0879763811366433 -52.46748968966767 0.0002018658046083 0.6763128092102111 0.0667857289548349 -42.21713450478027
0.0719703446828352 -43.72615235177512 0.0002018657838627 0.676301570702658 0.1038761462428578 -60.16669214169825 0.0011469465235331 -148.84050471805406
0.0045705495150298 -124.48691617006637 0.0667857400443055 -42.2171434110489 0.0011469463798166 -148.8405104725194 0.0920253192307658 -50.49790197565894
290.0 0.0692131246133038 -62.71262756937187 0.0006544600397824 -51.75894778528341 0.0692235376112182 -57.14641586068977 0.0045886832103084 -133.0475985884718
0.0006544600249382 -51.75893426012616 0.0585206289926744 -56.40844095977725 0.0002440552793351 -43.31907578319231 0.0599601286655002 -55.41312737034525
0.0692235489273477 -57.146431151002865 0.0002440552827534 -43.319085714076046 0.0778219326774613 -68.56520528539473 0.0011607072887736 -158.95236977137452
0.0045886832676797 -133.04759859647993 0.059960140632268 -55.413138246335755 0.0011607071531076 -158.95237386294124 0.0635853540237104 -54.81667361632652
300.0 0.0454211946419134 -55.229485496065784 0.0009133276785331 -72.33219960459533 0.0637438658625825 -70.62118872641179 0.0045879565108839 -140.85893844070014
0.0009133276606249 -72.3321914604079 0.0328228861882586 -35.71770047675342 0.0003212783166474 -78.40739723772569 0.050366698887312 -67.89359727193431
0.0637438773007751 -70.62120428716506 0.0003212783347864 -78.40740370847698 0.0496074076794756 -68.040231311987 0.0011524119641193 -168.33832879160158
0.0045879565644824 -140.85893851289936 0.0503667104112579 -67.89361026090194 0.0011524118409744 -168.33833151706602 0.0377981333068109 -39.06931545597966
310.0 0.0376861054440457 -23.629294576355438 0.001153500224445 -92.1863413359053 0.0568116692043529 -84.15510847752083 0.004591718970078 -147.93332890083096
0.0011535002052207 -92.18633600154362 0.0397878544032122 12.905929425326235 0.0004137162912996 -107.25906862957025 0.0396001226502628 -79.0642249465413
0.0568116800922028 -84.15512377587984 0.0004137163164825 -107.25907276596028 0.0315104074654393 -38.76716988659295 0.0011318393190834 -176.71625628651034
0.0045917190197552 -147.93332905769662 0.0396001328224054 -79.06424020191119 0.0011318392105608 -176.71625787930847 0.0396272330287119 5.375695717949106
