! File created by SignalIntegrity v1.2.0: Signal and Power Integrity Tools
! https://github.com/TeledyneLeCroy/SignalIntegrity
# MHz S MA R 50.0
0.0 0.027574819064354 -0.5266858204445304 4.0368572642e-06 -4.874409908030398 0.0124524353919727 0.0334541978959138 0.0003942988536057 0.0363455166856294
4.0387480857e-06 -4.872092269488024 0.025804650343225 -0.5761730742353686 0.0005043097536497 0.0070927522883687 0.0090915489287895 0.0268828644329254
0.0124604147066564 0.033440105606702 0.0005043121309259 0.0070929970217564 0.0256022739498944 -0.56973914041235 0.0001118559523269 -0.0740517954606954
0.0003943033402131 0.0363453267236271 0.0090998911174375 0.0268761646058648 0.0001118613623355 -0.0740473180167784 0.0250284009091611 -0.5948713408175632
10.0 0.1020146221803076 25.181293851112937 6.86624480319e-05 -79.3044196233039 0.0325303157431224 28.19536751581312 0.000361598039521 -39.34079318820176
6.8662447987e-05 -79.30441974458039 0.1018275356280042 25.411110504762213 0.0005480645384251 -53.59125958546249 0.0320255334880294 33.16151752181731
0.0325303157614956 28.19536789365502 0.000548064538123 -53.591259578003864 0.1005124379163942 26.02797463192005 0.0002884139003855 -98.54136147339625
0.0003615980394106 -39.340793174218426 0.0320255334932577 33.16151730343323 0.0002884139002678 -98.54136147856536 0.10113150382219 25.682732362992294
20.0 0.1305648603384176 13.592815912703617 0.0001519040556156 -107.76926668988222 0.0461722626726293 30.578643164352687 0.0003364826015934 -73.71859385771853
0.0001519046711563 -107.77088944694334 0.130425343762283 13.460390184553898 0.0006573497508138 -94.1636084096567 0.0476986236601843 33.304866040862194
0.0461731748753698 30.58517683745528 0.0006573469077596 -94.16366613564088 0.1291425044595038 14.405426135980248 0.0005065254338804 -134.82860571652148
0.0003364800934167 -73.71870010218625 0.0477004446682878 33.311919253345195 0.0005065248296832 -134.82918849180444 0.1297552864498719 13.54576008383678
30.0 0.1435976787305829 2.197955554064126 0.0002337105259269 -129.81457827475126 0.0598892049156859 23.421853968152885 0.0003159011336886 -105.63137836067447
0.0002337094497905 -129.81459785434578 0.1433906291109329 1.8147804235311722 0.0007863080660413 -124.65185724167516 0.0622983405778463 24.351678715543766
0.0598902075945139 23.421816055357244 0.000786307920802 -124.65178783886537 0.1423464593983782 3.1028432187056207 0.00067644974877 -162.95455519028997
0.000315900790723 -105.631274381773 0.0622994488901281 24.351788045827067 0.0006764487545548 -162.9546147264454 0.1426003831288224 1.7392908825533206
40.0 0.1454581413772953 -8.7873099015875 0.0003150510693772 -148.62031891835142 0.0689648867128695 12.143197986820987 0.0002992978863594 -135.21851524308667
0.00031504920522 -148.62064350965397 0.1451726935771331 -9.438508226178541 0.0009202593298938 -149.06185824169154 0.0714886194752368 11.989746862418624
0.0689657898858662 12.144250450722696 0.0009202573190738 -149.06190824133148 0.1445126242957834 -7.7442562494110865 0.0007953614483794 172.85631236733252
0.00029929686938 -135.21855022260783 0.0714893915465805 11.9909610978515 0.0007953611514067 172.85611054667208 0.1441003211226897 -9.642581512079262
50.0 0.1378373005352734 -19.031646676070878 0.0004049248442668 -165.75840485054857 0.0714484650552725 -0.4622763733409986 0.0002873006635694 -162.48198337674825
0.0004049244481455 -165.7584288201582 0.137397628180305 -20.04636280581735 0.0010664635372853 -170.0261873362483 0.0736639077315166 -1.330156237020318
0.0714485257788577 -0.4621624805474247 0.0010664629709527 -170.0261816358494 0.1373081827505929 -17.83503513309906 0.0008775189695496 151.72144414694228
0.0002873003093229 -162.48202186261105 0.0736639872306549 -1.3299457922942342 0.0008775187096689 151.72140198806764 0.1359432429905739 -20.336156990828645
60.0 0.1222438952466411 -27.791946802125313 0.0005134888382782 177.12962454796028 0.0667720790283651 -12.932516016044996 0.0002817063320312 172.39980559886223
0.0005134894640487 177.1295854241409 0.1214202246685979 -29.33433414239928 0.0012368285851807 170.55707419241392 0.0684708792034166 -14.385038891301779
0.0667719406006943 -12.93253239222988 0.0012368290383041 170.55705811158322 0.1221952280454474 -26.439177913186082 0.0009447733061484 133.06016781280456
0.0002817067632572 172.3997475561951 0.0684707893984775 -14.385058218257827 0.0009447739324132 133.060171475254 0.119565808728788 -29.649654419333494
70.0 0.1010679835293736 -33.46336323961227 0.0006450267201435 158.74745388247965 0.0554030879811523 -23.60076442009193 0.0002848204292235 148.77929845651042
0.0006450276275998 158.74747974123562 0.0994012518618629 -35.7486287344911 0.0014363829779751 151.282618949935 0.0564772968411672 -25.71912838330066
0.0554030545561836 -23.600820388017524 0.00143638385091 151.28262560586214 0.101511520896822 -31.976322150526702 0.0010195315169726 115.9653782246052
0.0002848212876575 148.77935221424067 0.0564770915390423 -25.719388093844195 0.0010195319773824 115.96542924842733 0.0972005813577772 -35.971137959272504
80.0 0.0787983894975868 -32.69507038739768 0.0007946413092865 138.59198927419453 0.0391719429431018 -28.337280981080166 0.00029764661048 125.52938379683813
0.0007946422428081 138.59200628986926 0.0755198715435084 -35.72795316616288 0.0016575604789797 131.32823510063548 0.0394660121647707 -31.526545191127667
0.0391720811028347 -28.337301899302858 0.0016575615210792 131.3282300685996 0.0796791916812222 -31.18605154132931 0.0011162624454389 99.17134732645889
0.0002976474565275 125.52939709120643 0.0394660696705672 -31.526532929018217 0.001116262943388 99.17140715249847 0.0731341614266686 -35.51524400525268
90.0 0.0639566397126302 -20.992581970804494 0.0009497650581932 116.83848535837791 0.0238361239395364 -11.76470396431756 0.0003182366112415 101.5574205730129
0.0009497657398936 116.83849792449408 0.0584188989392872 -23.16133044682268 0.0018811005504961 110.45545128675222 0.0228124699650907 -16.100735442101776
0.0238361507671656 -11.764878925405654 0.0018811012710651 110.45544375602584 0.0650673824203455 -19.783205225711054 0.0012349443567735 81.54470922258177
0.0003182372781222 101.55743396820054 0.0228124967365543 -16.10087172887397 0.0012349448826294 81.54474375607717 0.0563924105907029 -21.718648337576905
100.0 0.0661688518102353 -3.9000227454531204 0.0010943289845043 93.98547250346385 0.0267284319106639 31.883978225828454 0.0003420699314251 76.3621455658093
0.0010943288497439 93.9854705567076 0.0597963382200894 -2.5688838551908466 0.0020818100083611 88.83887703871798 0.0249000805807484 32.17923527995672
0.0267283245581339 31.884592154562533 0.0020818096369125 88.83888437095531 0.0671475600941762 -3.0518306153202235 0.0013622628124873 62.569703254066944
0.0003420695563843 76.36217209176878 0.0248999381744174 32.179723638393625 0.0013622626414339 62.56970100892197 0.0590026372016114 -0.2619651765098709
110.0 0.082043488822213 3.820860070082078 0.0012128510209188 70.61343193251017 0.0460657551014874 42.58796721109788 0.0003639312211157 50.0768752797727
0.0012128508593204 70.61342705516785 0.076741531046979 6.8675624304193175 0.0022349248662899 66.87108355195026 0.0446618628422947 43.573779556786654
0.0460658487000692 42.58826212714284 0.0022349245750429 66.87109082779031 0.0829728602603142 4.784137171022052 0.0014786153463134 42.351654700146476
0.0003639308736844 50.0769014090152 0.0446618972001368 43.574052519278524 0.0014786152555428 42.35165404473377 0.0770664429390467 8.752451055779451
120.0 0.1005469641209514 1.840659087421211 0.0012944364955648 47.19015360808992 0.0671600089762009 36.337765684163074 0.0003802135625122 23.000960366952434
0.0012944362595705 47.19014882187291 0.0965998272302187 4.949284324021857 0.0023240987219728 44.98806833108739 0.065965418878945 36.96466046462392
0.0671601536516379 36.33788756504286 0.0023240984761728 44.988075727226175 0.1017093225727713 3.037957713787604 0.0015673174048861 21.254724420826022
0.0003802132178243 23.00098661986625 0.0659655109420687 36.964784651357796 0.0015673173353988 21.254723146327223 0.0975207959885563 6.342152653302972
130.0 0.1147702006713325 -5.20334654985979 0.0013325647481376 24.144965693954763 0.0852874992478717 25.16494900858723 0.0003887347587572 -4.555129197759196
0.0013325644534788 24.144963332278923 0.1120155331116905 -2.4479173206552995 0.0023408133446978 23.66041826072956 0.0841315194954861 25.502284596597992
0.0852876400519316 25.164999034763035 0.0023408131456622 23.66042626704293 0.1163870424472206 -3.7791123572960834 0.0016158512576694 -0.2827045689162668
0.0003887344183323 -4.555100652112036 0.084131618797247 25.502342187886114 0.001615851167663 -0.2827060807559459 0.1132460082031105 -1.3520197711682937
140.0 0.1214544367867541 -14.536724908256616 0.001324902605573 1.8982425095888606 0.0984000537600148 12.160385274224705 0.0003882672125513 -32.4528558193424
0.0013249022958125 1.8982435059627631 0.1197092144002469 -12.236639174791321 0.0022861867063205 3.4221821730262727 0.0971873428209867 12.282156145136701
0.0984001745693393 12.160405086194148 0.0022861865744426 3.4221909231057945 0.1236846800228989 -12.897455851502594 0.0016164959482548 -21.851385538899656
0.0003882668925536 -32.45282430791472 0.0971874320381524 12.282183781667191 0.0016164958324023 -21.851386426598978 0.1211253258715489 -11.311187274765564
150.0 0.1192774755042403 -24.645182829265487 0.0012735008206978 -19.00891913837309 0.1052954380290368 -1.6289421117406333 0.0003776316913006 -60.69701969955309
0.0012735005375199 -19.008914850292545 0.1183394018167096 -22.8897999827768 0.0021728446244967 -15.033662625320316 0.1039737174151434 -1.6901291529155624
0.1052955387525625 -1.6289349561730406 0.0021728445778882 -15.033653490134206 0.1222324035136204 -22.801555366396183 0.0015655491561612 -43.01473634949945
0.0003776314073699 -60.6969862351353 0.1039737943446177 -1.6901152157338861 0.0015655490306727 -43.01473613397329 0.1198961311477407 -22.07224668596886
160.0 0.1081936876613995 -34.346383362243635 0.0011872985613835 -37.743767760379264 0.1053321157265311 -15.693316714657783 0.0003552187486902 -89.33308855184022
0.0011872983312401 -37.74376070642358 0.1077813098356026 -33.31690378374149 0.0020305879390833 -30.793663734092164 0.1038801822577104 -15.939383754773598
0.1053322012562369 -15.693315044797403 0.0020305879796719 -30.793655043799927 0.1119298722412351 -32.33013288874218 0.001464091129546 -63.16695973431962
0.0003552185085991 -89.33305504510871 0.1038802499000407 -15.93937662203127 0.001464091013384 -63.166958421159265 0.1094581839244959 -32.59717051798917
170.0 0.0893913634033743 -41.94396249877585 0.0010881165232949 -53.101797468232604 0.0984451228041838 -29.606531457610952 0.0003193288710927 -118.31262417463081
0.0010881163563384 -53.101788311875964 0.0890356153164225 -42.0314705481541 0.0019149063711062 -43.013858607400664 0.0968638569743599 -30.070131417917047
0.0984451977264761 -29.606532908586843 0.0019149064778841 -43.01385150120365 0.0938877255169729 -39.88382354249825 0.0013218371025031 -81.32690041914984
0.0003193286740104 -118.31259280402605 0.0968639183949783 -30.07012875901516 0.0013218370057099 -81.32689831901908 0.0907885676450609 -41.4748247315755
180.0 0.0660298791826466 -43.48774115484306 0.0010174437294722 -64.08283170454168 0.0852580679173739 -42.760538798125054 0.0002692539648617 -147.3441417803908
0.0010174436242536 -64.08282127537328 0.064776765693507 -45.47415136820863 0.0019041491947787 -52.102611933926596 0.0835537487527544 -43.51169774755959
0.0852581345853273 -42.76054357215398 0.0019041493272737 -52.10260714973298 0.0711042213905873 -41.94756862726162 0.001164550878999 -95.98161499905362
0.0002692538032215 -147.34411481858098 0.083553805060281 -43.51169981538296 0.0011645507993284 -95.9816124294755 0.066460489462956 -45.350936806082856
190.0 0.0465519076737983 -28.931942592525353 0.0010285259502065 -71.88600630747057 0.0672034641864178 -53.951009134633914 0.0002065626088116 -175.65691492268664
0.0010285258986892 -71.88599579336824 0.0423045289309082 -32.619501133139586 0.0020587748487853 -60.85629996151034 0.0653600815424104 -55.116075336828274
0.0672035225318931 -53.95101977257668 0.0020587749710292 -60.85629695056862 0.0512766042028685 -30.077696175758927 0.0010417179221646 -105.61930394543721
0.0002065624704352 -175.65689494612278 0.0653601315781875 -55.1160848645566 0.0010417178502076 -105.61930079757467 0.0433753393457882 -33.793627624569154
200.0 0.0484778519046004 1.095943511970774 0.0011470490448844 -80.67902596030791 0.0467165150780397 -60.082144605983196 0.0001358816805209 158.82534909609046
0.0011470490367238 -80.67901643774023 0.0410689836106305 3.631117535920829 0.0023683269470961 -72.48794317790913 0.0446366645534862 -61.823353969804494
0.0467165626822179 -60.08216897262371 0.0023683270528209 -72.48794081074584 0.0504860167523226 -2.727577763578092 0.0010161100642677 -111.22496681357971
0.0001358815501171 158.82535922438547 0.0446367048242034 -61.82337936252043 0.0010161099970506 -111.22496246664315 0.0405207718992295 2.2124564114056264
210.0 0.0709524514117865 13.01423859475941 0.0013459782182662 -93.51149665066313 0.0284553276620463 -51.12652272233243 6.60779095139e-05 145.3000753704152
0.0013459782462499 -93.51148848432217 0.0638096644509989 19.083521255002903 0.0027633565037726 -87.87688701000292 0.0258862925120205 -52.650409536407295
0.0284553566882588 -51.12658534915096 0.002763356608304 -87.8768847340751 0.0710237476579706 10.94220254724841 0.0011133489700286 -117.77845263655763
6.60777697673e-05 145.30008843472848 0.0258863136553076 -52.65047698479645 0.0011133489186333 -117.77844706465153 0.0626344954080268 19.21474443016826
220.0 0.0971576361069921 9.698369706550839 0.0015762025340628 -110.19395119142163 0.0239383765244411 -14.449402599687694 3.76802577065e-05 -161.8307766920142
0.0015762025948987 -110.1939443417363 0.0907236255522343 16.051752288344034 0.0031662007428853 -106.15087308630052 0.0215807983755428 -10.723558877896897
0.0239383729772573 -14.449481289404298 0.0031662008623394 -106.15087087804457 0.0971061833092593 9.083120007919312 0.0012940442934877 -128.98152126379722
3.7680221989e-05 -161.8305358703081 0.021580786179808 -10.72362644729437 0.0012940442713658 -128.98151529418962 0.0897209044189539 16.814116189072852
230.0 0.1189814265312763 0.4691935537891029 0.0017979958156593 -129.34066512278926 0.035898854486429 4.729342038068363 8.58667276744e-05 -148.04794739805865
0.0017979959063841 -129.34065949746963 0.1131897823148165 6.746886534054437 0.0035172938671391 -126.15154554614344 0.0344381944605602 8.710481478945239
0.0358988415361109 4.7293092920549515 0.0035172940091686 -126.15154353940582 0.1197489308895141 0.6595814337539518 0.0014995566578143 -144.47936692405213
8.58668071228e-05 -148.04783839676378 0.0344381779553115 8.710465865781975 0.0014995566714527 -144.47936128492282 0.112667365741363 7.804688233299961
240.0 0.1328525271915389 -11.186575702374702 0.0019868466831193 -149.77098348105915 0.0504493254269269 2.7814920572571586 0.0001355019974765 -166.82112463394512
0.0019868467986796 -149.77097901093538 0.1277276541536107 -4.9064958873460975 0.003777740775272 -146.9640244481026 0.0491525175611178 5.7337777229997
0.0504493172013046 2.7814741259603957 0.0037777409391035 -146.9640227694752 0.1349687399522119 -10.52013463079077 0.0016877409819436 -162.64454330820985
0.000135502108554 -166.82105822280187 0.0491525082425491 5.733772412934868 0.001687741031104 -162.6445383803941 0.1278815761032458 -3.6461572598384047
250.0 0.1369944459519901 -23.892343960114484 0.0021291416666486 -170.696224058376 0.0621476819894712 -6.166137970217637 0.0001746748711213 169.77652771509017
0.0021291417995627 -170.6962206903933 0.13262279717138 -17.46885119676422 0.0039249838245553 -167.90416908339424 0.060658142922587 -3.849395521490448
0.0621476801338397 -6.166152184745799 0.0039249840037442 -167.90416782440235 0.1407811665177801 -22.933190398653878 0.0018338683553202 177.8208946898574
0.0001746749995991 169.7765753609213 0.0606581411160408 -3.8493998362195345 0.0018338684352098 177.82089873019794 0.1336081616538418 -16.0269596113708
260.0 0.130749137401699 -36.92435877373262 0.0022179924850148 168.44076818903326 0.069449094470598 -17.747722163297517 0.0002014535216126 145.45809071084588
0.0022179926259431 168.44077050137594 0.1272440134184372 -30.180634266135076 0.0039501114923677 171.62973903328995 0.0675998794053425 -15.836093607041171
0.0694490980520082 -17.747735861214593 0.0039501116771469 171.62973980242515 0.1363714786475023 -35.8147914900212 0.001923791124661 157.80811181084152
0.0002014536601697 145.4581267009815 0.0675998836925877 -15.836099009346722 0.0019237912275224 157.80811487116276 0.1291832274980494 -28.552227280272266
270.0 0.114405863534296 -49.6327178262795 0.0022524483460001 148.1394447157247 0.0718757932129809 -30.467604729712942 0.0002144587943982 121.30930623656842
0.0022524484844585 148.1394460202267 0.1119053793902461 -42.30815747699609 0.003860777373419 152.31302078786956 0.0695806686337217 -28.850432118910824
0.0718758006810825 -30.467619055911086 0.0038607775519973 152.31302100348066 0.1218649665117194 -48.56015725463127 0.0019508952449756 138.05129824018613
0.0002144589368506 121.30933349437353 0.0695806772215064 -28.850439177052294 0.0019508953608969 138.05130024607712 0.1148817968625133 -40.48494326868134
280.0 0.0892487351307562 -60.85459146666978 0.0022406614461369 128.94411755692536 0.0695652236793339 -43.58414011466167 0.0002124882312544 98.29246867942125
0.002240661571315 128.94411792184175 0.0879763811366433 -52.46748968966767 0.0036912536577688 134.9912449354434 0.0667857289548349 -42.21713450478027
0.0695652333957833 -43.584155582845156 0.0036912538170731 134.99124454590816 0.0983301364198493 -60.243598450953606 0.0019185192120151 119.34309276599018
0.0002124883718584 98.2924882486878 0.0667857400443055 -42.2171434110489 0.0019185193291749 119.34309363584542 0.0920253192307658 -50.49790197565894
290.0 0.057985539375103 -66.93115879439775 0.0022051594297452 111.40327970579645 0.0632317635329228 -56.530218500439645 0.0001963894761963 78.13390965274233
0.0022051595318686 111.40327926325963 0.0585206289926744 -56.40844095977725 0.0035164972432525 120.53773413628092 0.0599601286655002 -55.41312737034525
0.0632317739990547 -56.53023541232578 0.0035164973702141 120.5377331560574 0.0680448821198036 -68.36165800150815 0.0018466008672656 102.60810069301093
0.0001963896091879 78.13392073364987 0.059960140632268 -55.413138246335755 0.0018466009721562 102.6081003680124 0.0635853540237104 -54.81667361632652
300.0 0.0285553596907142 -48.070105795785906 0.0021847361237391 95.78721901371958 0.0541267963938254 -68.73059684738081 0.0001730398612043 63.970459825188
0.0021847361964241 95.78721801500599 0.0328228861882586 -35.71770047675342 0.0034539439120923 109.11659425465348 0.050366698887312 -67.89359727193431
0.0541268063985318 -68.7306154145231 0.0034539439972969 109.11659287315999 0.0363530465653517 -61.51527037080846 0.0017777920584323 88.63476691934699
0.0001730399785481 63.97045893852826 0.0503667104112579 -67.89361026090194 0.0017777921372238 88.63476549659435 0.0377981333068109 -39.06931545597966
310.0 0.0349531441993429 12.524932645732022 0.0022247796053539 81.6308548238005 0.0438567815471043 -79.59180905153171 0.0001604490318437 58.754145104920376
0.0022247796483044 81.63085362607188 0.0397878544032122 12.905929425326235 0.0036204462163518 99.10977851939207 0.0396001226502628 -79.0642249465413
0.0438567902882443 -79.59182935897435 0.0036204462599827 99.10977710307463 0.0282545335552384 -3.6635790476713415 0.0017717917661827 77.23874468187896
0.0001604491187476 58.75412926796104 0.0396001328224054 -79.06424020191119 0.0017717918090317 77.23874260694875 0.0396272330287119 5.375695717949106
