! File created by SignalIntegrity v1.2.0: Signal and Power Integrity Tools
! https://github.com/TeledyneLeCroy/SignalIntegrity
# MHz S MA R 50.0
0.0 0.026814702766176 -0.5398681389176139 0.0005298554622585 -179.98159775240202 0.0127347755973819 0.0327840663111831 0.0004253999323398 179.96698348086545
0.0005298627545921 -179.98159749229688 0.025804650343225 -0.5761730742353686 0.0008853685587196 179.99717024598695 0.0090915489287895 0.0268828644329254
0.0127427547091293 0.0327706949450618 0.0008853701439296 179.9971700096801 0.0263356899405798 -0.5541996785230154 0.0015558910942394 -179.97127760620546
0.0004253895176605 179.96698147431186 0.0090998911174375 0.0268761646058648 0.001555885676752 -179.97127775611762 0.0250284009091611 -0.5948713408175632
10.0 0.1028648307093965 26.065882430015744 0.0005796979745108 -172.7574605021871 0.033628703656076 29.038999337348077 0.0003902466969764 164.70308524146486
0.0005796979746791 -172.75746047574273 0.1018275356280042 25.411110504762213 0.0008926951432361 170.07884021150505 0.0320255334880294 33.16151752181731
0.0336287036777607 29.03899970178474 0.0008926951432796 170.0788402154929 0.1016313689991639 26.069151294660344 0.0014035941258649 155.79411936142733
0.0003902466970584 164.70308520249338 0.0320255334932577 33.16151730343323 0.00140359412601 155.7941193518253 0.10113150382219 25.682732362992294
20.0 0.1329575234932335 14.443632703622571 0.0007429082644429 -176.29185903219792 0.0482759727478863 30.924114775590166 0.0003745897359245 151.44667053534428
0.0007429138986453 -176.2918094289736 0.130425343762283 13.460390184553898 0.0008740264440595 158.80088929447857 0.0476986236601843 33.304866040862194
0.0482769124696307 30.930347793925915 0.0008740300356062 158.80077868129658 0.1308241199232778 14.55520796064678 0.0012662721731939 136.45837287729123
0.0003745926700487 151.4457531418794 0.0477004446682878 33.311919253345195 0.0012662780584167 136.45836005248609 0.1297552864498719 13.54576008383678
30.0 0.1472920655757047 2.8511839702384862 0.0009064319557872 173.03519758111185 0.0626866581052535 23.313187978162595 0.0003552951899056 140.35399344020328
0.0009064314074022 173.0351426257763 0.1433906291109329 1.8147804235311722 0.0008220317608807 150.34754285880408 0.0622983405778463 24.351678715543766
0.0626876561389702 23.313160828077987 0.0008220303979183 150.3475486661091 0.1444690089087242 3.252622171847097 0.0011316458100672 119.38472489112785
0.0003552941594007 140.3540059781744 0.0622994488901281 24.351788045827067 0.0011316459205026 119.3846775338545 0.1426003831288224 1.7392908825533206
40.0 0.1499605977500928 -8.460908278113846 0.0010467680616831 160.34673963381817 0.0721065805681402 11.727570552379344 0.0003436678775538 131.75459482047438
0.0010467699400332 160.34655570896913 0.1451726935771331 -9.438508226178541 0.0007881661461604 146.89299100643467 0.0714886194752368 11.989746862418624
0.0721074688816069 11.728581066657148 0.0007881678175135 146.89283592026214 0.1468548019278209 -7.663153885286999 0.0010022472287519 104.35047251729415
0.0003436664185152 131.75433540009797 0.0714893915465805 11.9909610978515 0.0010022499910241 104.35040545997971 0.1441003211226897 -9.642581512079262
50.0 0.1424877797297249 -19.157467873814927 0.0011764625451722 147.70913827606694 0.0745698614935426 -1.136899026307857 0.0003461416622914 125.01662818228176
0.0011764620958197 147.70910029797045 0.137397628180305 -20.04636280581735 0.0008369179877216 146.9730423332281 0.0736639077315166 -1.330156237020318
0.0745699160582217 -1.1367885185143018 0.0008369170254305 146.97298285160934 0.1395541892885221 -17.881367508378954 0.0008789166906116 91.82291301346373
0.0003461413147368 125.01659254624846 0.0736639872306549 -1.3299457922942342 0.0008789169394074 91.822869935258 0.1359432429905739 -20.336156990828645
60.0 0.1262495554736666 -28.52142559827485 0.0013236671272611 135.4242793515778 0.0694842442165862 -13.87950250020976 0.0003702503484822 119.22687754924905
0.0013236679299404 135.42429128296425 0.1214202246685979 -29.33433414239928 0.00101094072899 144.97481312906166 0.0684708792034166 -14.385038891301779
0.0694841069333538 -13.879520581629793 0.0010109417321417 144.97481459000596 0.1239421467857556 -26.662011144066206 0.0007728129971219 83.1393555766276
0.0003702508613116 119.22683301523945 0.0684707893984775 -14.385058218257827 0.0007728134345603 83.13940077724158 0.119565808728788 -29.649654419333494
70.0 0.1035016500088978 -34.95767502830526 0.0015155628833941 122.69044889979878 0.0572986687750994 -24.867720521349842 0.0004263282999171 112.35941644812516
0.0015155637700459 122.69048274766465 0.0994012518618629 -35.7486287344911 0.0013010816269746 137.03885806530474 0.0564772968411672 -25.71912838330066
0.0572986397402947 -24.86777990798225 0.0013010835639546 137.03886558880268 0.1023023152462484 -32.36402021828396 0.0007173803188792 79.31385843010787
0.0004263292298456 112.35949872941055 0.0564770915390423 -25.719388093844195 0.0007173801018528 79.31390787154197 0.0972005813577772 -35.971137959272504
80.0 0.078672626241517 -34.80106159882994 0.0017620056163231 108.43905236886114 0.0398651914765729 -29.86921389310012 0.0005183538709814 101.97883725158033
0.0017620060726783 108.43908631774059 0.0755198715435084 -35.72795316616288 0.0016670896949255 123.59876164691951 0.0394660121647707 -31.526545191127667
0.0398653284004415 -29.869235133892076 0.0016670907968474 123.59877368800774 0.0791683274318089 -31.410910810890822 0.000755518050575 77.43955227292267
0.0005183553781093 101.97882438710606 0.0394660696705672 -31.526532929018217 0.0007555178965725 77.43965730167189 0.0731341614266686 -35.51524400525268
90.0 0.0611066952892086 -21.771601758095066 0.0020493583530693 92.14827734381736 0.0233692803973123 -11.691351938626802 0.0006376965518035 87.25928535615563
0.0020493588838155 92.14829665729111 0.0584188989392872 -23.16133044682268 0.0020626727198736 106.43850077828259 0.0228124699650907 -16.100735442101776
0.0233693018546752 -11.691532059842965 0.0020626737325982 106.43849685962714 0.0637347343335295 -18.616675602239724 0.0008914289798499 71.50750080657042
0.0006376976238498 87.25927085632836 0.0228124967365543 -16.10087172887397 0.0008914293415245 71.50755688379981 0.0563924105907029 -21.718648337576905
100.0 0.0634771155648921 -0.9316607738393262 0.0023481205207028 73.99911236123076 0.0277019812626525 35.05378712919672 0.00076776070266 69.00586920785103
0.0023481203712458 73.99910538607747 0.0597963382200894 -2.5688838551908466 0.0024438451675136 87.0835168789339 0.0249000805807484 32.17923527995672
0.0277018903748747 35.05438778640038 0.0024438444083111 87.0835225679196 0.0670547221740219 -0.0008291225396608 0.0010828469778155 59.49597750748377
0.0007677600352378 69.00590187213446 0.0248999381744174 32.179723638393625 0.0010828467788723 59.49596894317539 0.0590026372016114 -0.2619651765098709
110.0 0.0824313383522125 8.227101955594975 0.002624925541295 54.56127443963863 0.0492661634102858 44.14382753936765 0.0008911727591704 48.497498666814515
0.0026249253139791 54.56126804617806 0.076741531046979 6.8675624304193175 0.0027728150335077 66.6412009463092 0.0446618628422947 43.573779556786654
0.0492662615819725 44.1440983564547 0.002772814352011 66.64120976028667 0.0854745131503002 8.060867025215078 0.0012815051181357 43.079033480832756
0.0008911721806257 48.49752666785235 0.0446618972001368 43.574052519278524 0.0012815049764045 43.07903008629766 0.0770664429390467 8.752451055779451
120.0 0.1045563124068461 6.112958168194386 0.0028553041544202 34.42464352187612 0.0722486398849918 36.97323278499754 0.0009952851598683 26.756508672281477
0.0028553038166524 34.424638533282 0.0965998272302187 4.949284324021857 0.0030255929222556 45.88476458374169 0.065965418878945 36.96466046462392
0.0722487827102991 36.97334455201359 0.0030255923384144 45.88477514137915 0.1068403835916955 5.905214957798038 0.0014548120844144 24.182154702460537
0.0009952846004973 26.756534458054606 0.0659655109420687 36.964784651357796 0.0014548119578007 24.182151887549733 0.0975207959885563 6.342152653302972
130.0 0.1222642437862312 -1.3154252878256112 0.0030237558959887 14.103584889160066 0.0920875326485607 25.307884835495063 0.0010722405684787 4.507674363005977
0.0030237554770051 14.10358212326287 0.1120155331116905 -2.4479173206552995 0.0031902236939914 25.39696064193321 0.0841315194954861 25.502284596597992
0.0920876696215217 25.307931881861933 0.0031902232314892 25.396972415264056 0.1239397284926411 -1.2966475389132297 0.0015834782150291 4.132914953455793
0.0010722400286238 4.5077010312640144 0.084131618797247 25.502342187886114 0.00158347806047 4.132912650446039 0.1132460082031105 -1.3520197711682937
140.0 0.1322246217647406 -11.010843270708673 0.0031241273525011 -5.991009949388886 0.1067858296879486 11.986141016405051 0.0011179319109618 -17.788339300114785
0.0031241269111109 -5.99101033805285 0.1197092144002469 -12.236639174791321 0.0032676037580181 5.6588631103242895 0.0971873428209867 12.282156145136701
0.1067859467074462 11.986161189934984 0.0032676034444991 5.658875635211191 0.1334694056252443 -10.711081186829922 0.0016578749497449 -16.224080263589407
0.0011179314283388 -17.788310548285867 0.0971874320381524 12.282183781667191 0.0016578747633706 -16.22408123980602 0.1211253258715489 -11.311187274765564
150.0 0.1331096012540746 -21.49050333584386 0.0031580113429554 -25.49695785689564 0.1151563873879864 -2.0634262966121315 0.001130176070472 -39.79458372841519
0.0031580109325063 -25.4969562241899 0.1183394018167096 -22.8897999827768 0.0032714813345878 -12.869958257214567 0.1039737174151434 -1.6901291529155624
0.115156485270074 -2.0634171617699164 0.0032714811871542 -12.869945616233595 0.1340819337368114 -20.89113058527307 0.0016747788496358 -36.25772164506088
0.0011301756822832 -39.794553264974404 0.1039737943446177 -1.6901152157338861 0.001674778653469 -36.25772087194263 0.1198961311477407 -22.07224668596886
160.0 0.1248156585198231 -31.754073748160653 0.0031352570855414 -44.03618502090063 0.1165322076612269 -16.420433468348783 0.0011080535694891 -61.133727128371305
0.0031352567379551 -44.03618191895272 0.1077813098356026 -33.31690378374149 0.0032311669412813 -29.726096403495934 0.1038801822577104 -15.939383754773598
0.1165322916423783 -16.420428912544132 0.0032311669561142 -29.72608445608131 0.1256477234101576 -30.825681492331167 0.0016370193371454 -55.320424275256784
0.0011080532940912 -61.13369600965639 0.1038802499000407 -15.93937662203127 0.0016370191572632 -55.32042185696823 0.1094581839244959 -32.59717051798917
170.0 0.1083129526862512 -40.61611835969075 0.0030776454480698 -61.20094723040028 0.1107621738158173 -30.76836990553173 0.0010536454538736 -81.21445089983278
0.0030776451737302 -61.20094318365222 0.0890356153164225 -42.0314705481541 0.0031959288348072 -44.574081485295494 0.0968638569743599 -30.070131417917047
0.1107622485588482 -30.76836770186393 0.0031959289838521 -44.57407109860954 0.1091215343054627 -39.29030575837172 0.0015570559027684 -72.57839555978633
0.0010536452888391 -81.21442025220932 0.0968639183949783 -30.07012875901516 0.0015570557551343 -72.57839191908182 0.0907885676450609 -41.4748247315755
180.0 0.0860049829608295 -45.79774967123744 0.0030230566747028 -76.68264148551081 0.0983127215752554 -44.690591570121015 0.0009763707742701 -99.10532004647891
0.0030230564701389 -76.68263689240062 0.064776765693507 -45.47415136820863 0.0032327512815813 -57.59665179543165 0.0835537487527544 -43.51169774755959
0.0983127894268216 -44.69059155373051 0.0032327515174486 -57.596643586944566 0.0869541996848061 -43.92862629452883 0.0014636969720356 -87.04268057431398
0.0009763707021169 -99.1052907986186 0.083553805060281 -43.51169981538296 0.0014636968582974 -87.04267618499763 0.066460489462956 -45.350936806082856
190.0 0.0632040136434041 -41.99321308748443 0.0030222826425083 -90.60051414961148 0.0803783769117927 -57.42583918873726 0.0008982714828259 -113.6849698273071
0.003022282499955 -90.60050929220452 0.0423045289309082 -32.619501133139586 0.0034041107079972 -69.88294355488125 0.0653600815424104 -55.116075336828274
0.0803784379001751 -57.42584261241951 0.0034041109809996 -69.88293750522678 0.0646963556051176 -39.41666486362446 0.0014056904377601 -98.20594359489243
0.0008982714798991 -113.68494263579099 0.0653601315781875 -55.1160848645566 0.0014056903500036 -98.20593873416283 0.0433753393457882 -33.793627624569154
200.0 0.0516893881418701 -22.250575245295426 0.0031202142868583 -103.7907635084011 0.0589590453097477 -67.2266149937386 0.0008541214578454 -124.59824847950394
0.0031202142010423 -103.79075862996132 0.0410689836106305 3.631117535920829 0.0037308508487993 -83.04803803056382 0.0446366645534862 -61.823353969804494
0.0589590977651474 -67.22662552649952 0.0037308511291018 -83.04803354600999 0.0544288224763306 -19.788965537228723 0.0014362797866002 -107.3574021913856
0.0008541215048417 -124.59822373929758 0.0446367048242034 -61.82337936252043 0.0014362797183398 -107.35739689798642 0.0405207718992295 2.2124564114056264
210.0 0.0621385466686592 -2.056506278941771 0.0033296190309799 -117.50836208633831 0.0372155199320773 -68.80195736625333 0.0008755203551249 -133.77269651376994
0.0033296189999694 -117.5083574395312 0.0638096644509989 19.083521255002903 0.004177368134325 -98.16742616870437 0.0258862925120205 -52.650409536407295
0.0372155601866056 -68.80198745097032 0.0041773684177943 -98.16742262312965 0.0660568262148529 -0.9805405724755578 0.0015752462394589 -117.48490257316432
0.000875520444831 -133.77267446386082 0.0258863136553076 -52.65047698479645 0.0015752461932846 -117.4848969593995 0.0626344954080268 19.21474443016826
220.0 0.0842308007827329 1.9541031377973341 0.0036241045534772 -132.64065573386273 0.0224572538427331 -44.693057020356214 0.0009656264111261 -144.5559204749464
0.0036241045753053 -132.64065154154312 0.0907236255522343 16.051752288344034 0.0046754785787214 -115.33237673016498 0.0215807983755428 -10.723558877896897
0.0224572697452009 -44.6931373177992 0.0046754788737687 -115.33237378423982 0.0891013312413377 2.390656783491715 0.0017937979544401 -130.62749364824035
0.0009656265459596 -144.55590130836026 0.021580786179808 -10.72362644729437 0.0017937979383229 -130.6274880443967 0.0897209044189539 16.814116189072852
230.0 0.1057546024384382 -3.5591007306005475 0.0039571318781897 -149.3460431582934 0.0275250442686666 -7.256729157676812 0.0010998866173525 -158.60932034879366
0.0039571319479042 -149.34603956210339 0.1131897823148165 6.746886534054437 0.005156490617767 -134.05544838399288 0.0344381944605602 8.710481478945239
0.0275250358238179 -7.256780815908686 0.005156490931469 -134.0554459285059 0.1117060835071174 -3.3359159256609088 0.0020437126873909 -146.7571769253122
0.0010998867998245 -158.60930416134377 0.0344381779553115 8.710465865781975 0.0020437127075634 -146.7571716778927 0.112667365741363 7.804688233299961
240.0 0.1211534502824222 -13.114249733583446 0.0042839289307773 -167.31436438377787 0.0422632827945955 -0.9635915578615123 0.0012493721523387 -175.5550161970301
0.0042839290398848 -167.31436144103742 0.1277276541536107 -4.9064958873460975 0.0055672395867476 -153.7342067730807 0.0491525175611178 5.7337777229997
0.0422632748464929 -0.9636152825859776 0.0055672399194918 -153.73420479654564 0.1283004432144763 -13.052456005836946 0.0022847360550911 -164.9646047047771
0.0012493723793582 -175.55500293033867 0.0491525082425491 5.733772412934868 0.0022847361130594 -164.96460005230603 0.1278815761032458 -3.6461572598384047
250.0 0.1279776144465224 -24.365660513185833 0.0045707044125412 173.89099799644214 0.0558226883451454 -7.51607190689364 0.0013930624495485 165.5435846642563
0.0045707045500081 173.89100028749021 0.13262279717138 -17.46885119676422 0.0058720682603585 -173.83735088946466 0.060658142922587 -3.849395521490448
0.0558226861640293 -7.516088330806875 0.0058720686062825 -173.83734940727118 0.1363145543485599 -24.54662542815943 0.0024901209056551 175.6211611853023
0.0013930627125222 165.54359518750115 0.0606581411160408 -3.8493998362195345 0.0024901209983322 175.6211651031387 0.1336081616538418 -16.0269596113708
260.0 0.1253549202221428 -36.145904364780144 0.0047946150203866 154.68453593243555 0.0656055054882762 -18.21709745027486 0.0015169518597156 145.45933017604094
0.0047946151739816 154.68453760709292 0.1272440134184372 -30.180634266135076 0.0060506621512339 166.096429681496 0.0675998794053425 -15.836093607041171
0.065605508826128 -18.217112038495582 0.0060506625001121 166.09643064774752 0.1347162561689288 -36.748666312410194 0.0026428054271292 155.65249078268002
0.0015169521467274 145.45933818571118 0.0675998836925877 -15.836099009346722 0.00264280554783 155.6524938847277 0.1291832274980494 -28.552227280272266
270.0 0.1135508493966181 -47.56265076750335 0.0049426543336877 135.45290743788203 0.0709627629230247 -30.596664383252808 0.0016107498877468 124.7650673368093
0.0049426544910922 135.45290854877845 0.1119053793902461 -42.30815747699609 0.0060988952532633 146.5232412216975 0.0695806686337217 -28.850432118910824
0.0709627704188931 -30.596678808257472 0.0060988955918928 146.52324164747603 0.1235590093250165 -48.92265795082343 0.002732491402105 135.66220727525086
0.0016107501853693 124.76507305789424 0.0695806772215064 -28.850439177052294 0.002732491541369 135.6622095070122 0.1148817968625133 -40.48494326868134
280.0 0.0939139672095443 -57.366092441587995 0.0050140398983296 116.58780979581795 0.0719703886524986 -43.72612481345044 0.0016671541203618 103.96827902821086
0.0050140400480657 116.58781040693701 0.0879763811366433 -52.46748968966767 0.0060354940550803 127.94528322293039 0.0667857289548349 -42.21713450478027
0.0719703987600155 -43.7261396250089 0.0060354943681987 127.9452830877081 0.1038761429389845 -60.16669372388969 0.0027571527022548 116.18862425070917
0.0016671544146223 103.96828264679024 0.0667857400443055 -42.2171434110489 0.0027571528483614 116.18862556893798 0.0920253192307658 -50.49790197565894
290.0 0.0692089665927237 -62.711762999850016 0.0050258870644048 98.48148951127303 0.0692235765482421 -57.14639931390553 0.0016842908384457 83.6112770633861
0.0050258871968869 98.48148970015652 0.0585206289926744 -56.40844095977725 0.0059123258555745 110.87528064388555 0.0599601286655002 -55.41312737034525
0.0692235878642285 -57.14641460419097 0.0059123261271829 110.87527995512633 0.0778219313649046 -68.56520598977967 0.0027286144915108 97.82712187983746
0.0016842911154674 83.61127872416421 0.059960140632268 -55.413138246335755 0.0027286146310283 97.82712226134852 0.0635853540237104 -54.81667361632652
300.0 0.0454174840352703 -55.226719561524504 0.0050173884076762 81.43369644224751 0.0637438896860713 -70.62116237449594 0.0016695569686188 64.26886758355073
0.0050173885164887 81.43369630506426 0.0328228861882586 -35.71770047675342 0.0058191022014426 95.6219623548468 0.050366698887312 -67.89359727193431
0.063743901124135 -70.62117793522157 0.0058191024175055 95.62196119325708 0.0496074078185261 -68.04023152414085 0.0026783199590553 81.12399066790489
0.001669557215537 64.26886742530485 0.0503667104112579 -67.89361026090194 0.0026783200780392 81.12399015618793 0.0377981333068109 -39.06931545597966
310.0 0.0376847058737467 -23.6230801762597 0.0050448885880826 65.46945924306469 0.0568116802314153 -84.15506623311515 0.0016415453708758 46.40377002614244
0.0050448886710296 65.4694588920027 0.0397878544032122 12.905929425326235 0.0058665165284882 81.90017833802584 0.0396001226502628 -79.0642249465413
0.0568116911191496 -84.15508153144616 0.0058665166812338 81.90017689305509 0.0315104084121753 -38.76717098113907 0.0026557963732691 66.24304998764664
0.0016415455771995 46.403768258271576 0.0396001328224054 -79.06424020191119 0.0026557964598427 66.24304877108197 0.0396272330287119 5.375695717949106
