! File created by SignalIntegrity v1.2.0: Signal and Power Integrity Tools
! https://github.com/TeledyneLeCroy/SignalIntegrity
# MHz S MA R 50.0
0.0 0.0291036301532552 -0.495443232242182 0.0003444508503941 -0.0206113989155412 0.0122601912409797 0.0335458666129388 0.0001101808036719 0.0825060649899196
0.0003444454794653 -0.0206120494460132 0.025804650343225 -0.5761730742353686 0.0007797786216802 0.024916152692924 0.0090915489287895 0.0268828644329254
0.0122685463524814 0.0335305244805909 0.0007797800169313 0.0249163417532574 0.0274508559587552 -0.5270983540322864 0.0006494160054508 -179.96270951267104
0.0001101892895806 0.0825012562177746 0.0090998911174375 0.0268761646058648 0.0006494112042681 -179.9627092611284 0.0250284009091611 -0.5948713408175632
10.0 0.1035337681524816 24.500092977229816 0.0004734893408122 12.146871763591982 0.0324297538220467 27.9853920373048 0.0003052963287652 40.38762966631695
0.0004734893408194 12.146871752469098 0.1018275356280042 25.411110504762213 0.000750498732223 -12.360772198743218 0.0320255334880294 33.16151752181731
0.0324297538397568 27.985392412805112 0.0007504987321361 -12.360772185705862 0.1024432631561332 25.259817003718464 0.0006011412742354 147.50392012528715
0.000305296328856 40.387629698372244 0.0320255334932577 33.16151730343323 0.0006011412743128 147.50392012148197 0.10113150382219 25.682732362992294
20.0 0.1317056463894099 13.05984469868088 0.0006283019692489 2.2506035813218404 0.0457985684112068 30.671037761838377 0.0004962425312188 31.247531451341224
0.000628299072667 2.250361204845946 0.130425343762283 13.460390184553898 0.000733845381212 -22.60197752852014 0.0476986236601843 33.304866040862194
0.0457998034595951 30.67889323434267 0.0007338455211135 -22.601909836663843 0.1309172149334118 13.719998694217233 0.0005536733632028 118.59396076552103
0.000496247655877 31.24767830605875 0.0477004446682878 33.311919253345195 0.0005536741510736 118.59378379764874 0.1297552864498719 13.54576008383678
30.0 0.1443866906185905 1.8401734285262392 0.00073112964814 -14.980420741434939 0.0594367214553038 23.839988803167877 0.0006264147132054 16.45935934007455
0.0007311296336417 -14.980365158347107 0.1433906291109329 1.8147804235311722 0.0007370338089591 -33.21534316437134 0.0622983405778463 24.351678715543766
0.0594378397853232 23.84022329525992 0.0007370328366545 -33.21532249527914 0.1438429995765382 2.466043782622974 0.0004917842973697 91.58029541636213
0.0006264140996787 16.459414070369455 0.0622994488901281 24.351788045827067 0.0004917844803265 91.5802914624853 0.1426003831288224 1.7392908825533206
40.0 0.1460606949686067 -8.946975489757538 0.0007606986991928 -35.31391237079246 0.0685789836211234 12.815546779537977 0.0006815905985229 1.07501233803119
0.0007606972576305 -35.31390110980623 0.1451726935771331 -9.438508226178541 0.0007515085283071 -46.2310340024396 0.0714886194752368 11.989746862418624
0.068579533742753 12.816866163058087 0.0007515089920153 -46.230973314346656 0.1457008866505014 -8.326119624751552 0.0004090401010537 66.96429566566427
0.000681592752908 1.0749393108230916 0.0714893915465805 11.9909610978515 0.0004090403364499 66.96416394839059 0.1441003211226897 -9.642581512079262
50.0 0.1384476741712648 -18.981855225649937 0.0007152114945861 -57.857895305248874 0.071226419271754 0.4646826894199653 0.00066197661869 -13.40285493885969
0.0007152112505958 -57.85787114126167 0.137397628180305 -20.04636280581735 0.0007566253642905 -62.770168656890206 0.0736639077315166 -1.330156237020318
0.0712264339774334 0.4649385876806803 0.000756625200932 -62.77020563224282 0.1382168248128143 -18.344290345711848 0.0003022954306722 46.236386891343756
0.0006619759365431 -13.402892600438731 0.0736639872306549 -1.3299457922942342 0.000302295334193 46.23640698050092 0.1359432429905739 -20.336156990828645
60.0 0.1230458472385161 -27.526396246669123 0.0006027282756012 -83.55528956212169 0.0668054790238662 -11.678991698515869 0.0005737450414437 -25.53711718375662
0.0006027282522378 -83.55531275313119 0.1214202246685979 -29.33433414239928 0.0007342378041978 -83.2406756482233 0.0684708792034166 -14.385038891301779
0.0668052973495352 -11.678960096047488 0.0007342374833662 -83.24066222884952 0.1229049916792859 -26.84840999746313 0.0001759919607311 36.470208443935
0.0005737452370119 -25.53707926651497 0.0684707893984775 -14.385058218257827 0.0001759919325845 36.47016979723562 0.119565808728788 -29.649654419333494
70.0 0.1022335009217217 -32.99975010993659 0.0004438437573678 -116.46167952533877 0.0558218647366147 -21.85875743163686 0.0004333136774876 -31.610977020180442
0.0004438441666484 -116.46167150079637 0.0994012518618629 -35.7486287344911 0.0006782073641437 -108.22266771048744 0.0564772968411672 -25.71912838330066
0.0558220313960323 -21.85879534436112 0.0006782074899274 -108.2226831125152 0.1021634795419833 -32.25197777974958 0.0001016028032432 80.86404326488717
0.0004333134936342 -31.611001004766297 0.0564770915390423 -25.719388093844195 0.0001016026570569 80.86423216646396 0.0972005813577772 -35.971137959272504
80.0 0.0804731819124827 -32.19986782961906 0.0003046545857428 -169.65487262960002 0.0402267373199368 -25.883520205203023 0.0002955039196526 -19.67279805017043
0.0003046552094655 -169.65483768395066 0.0755198715435084 -35.72795316616288 0.0006005071931797 -139.13269056707352 0.0394660121647707 -31.526545191127667
0.0402268812252571 -25.88359127746713 0.0006005071157433 -139.13278705852596 0.0804836597881976 -31.342252605213222 0.0002342873235845 109.56650590874122
0.0002955032886992 -19.67264214207213 0.0394660696705672 -31.526532929018217 0.0002342874863336 109.56657348871725 0.0731341614266686 -35.51524400525268
90.0 0.0660436241223733 -21.098894423778884 0.000355052813349 118.83806580034492 0.0259207082582134 -10.014502495844862 0.0003163066593496 14.361353682816375
0.0003550530921408 118.83812124724773 0.0584188989392872 -23.16133044682268 0.000538168545703 -177.79032840929196 0.0228124699650907 -16.100735442101776
0.0259207534549465 -10.014827848371718 0.0005381688154286 -177.79039754795198 0.066198255767433 -20.114422595741644 0.0004246930508444 98.29512335317918
0.0003163066062627 14.361476562358874 0.0228124967365543 -16.10087172887397 0.0004246932057051 98.29515522113941 0.0563924105907029 -21.718648337576905
100.0 0.0680097620142279 -4.994954827305686 0.0005841791557715 72.90848427668095 0.0284709341783773 28.52426148231585 0.0005153839677709 25.581034511441906
0.0005841790879315 72.90845264440696 0.0597963382200894 -2.5688838551908466 0.0005469654557899 137.94938443576746 0.0249000805807484 32.17923527995672
0.0284707981246501 28.524709457011472 0.000546965647362 137.94943163139476 0.0683869782568498 -3.983685203750048 0.0006184499352488 80.57371736741077
0.0005153835165397 25.58104775242241 0.0248999381744174 32.179723638393625 0.0006184499070561 80.57369961318294 0.0590026372016114 -0.2619651765098709
110.0 0.0832633933241285 2.5053164093736426 0.0008562276820097 42.58954749105035 0.0466718266075572 39.637647532843644 0.0007568580841502 20.268899963158482
0.0008562276246105 42.589529828129564 0.076741531046979 6.8675624304193175 0.0006508388404191 96.79597371617818 0.0446618628422947 43.573779556786654
0.0466718602339632 39.63792334748142 0.0006508389300124 96.79601040528111 0.083963359620075 3.5058653134973183 0.0007970777503365 61.626188120362535
0.0007568577736432 20.268915749216767 0.0446618972001368 43.574052519278524 0.0007970776793294 61.62617414641641 0.0770664429390467 8.752451055779451
120.0 0.1012960134740237 0.7034443998646016 0.0011180455327706 17.912710904665843 0.0670676374890026 34.22654392187769 0.0009849078721888 9.996571797485743
0.0011180454696741 17.912700148544694 0.0965998272302187 4.949284324021857 0.0008183733134068 63.28967773468936 0.065965418878945 36.96466046462392
0.0670677326291752 34.22667735389265 0.0008183733300855 63.28970591096172 0.1023330199823776 1.6853743547479922 0.0009495430744444 42.841078827137736
0.0009849076068494 9.996585177354575 0.0659655109420687 36.964784651357796 0.0009495429694858 42.84106905105894 0.0975207959885563 6.342152653302972
130.0 0.1152550479316056 -6.122786024611152 0.0013459868555513 -4.147982571382042 0.0847099609306193 23.587401298334424 0.0011804582292104 -1.5654423694987163
0.0013459867869664 -4.147989288593941 0.1120155331116905 -2.4479173206552995 0.0010099404769922 35.794449747317934 0.0841315194954861 25.502284596597992
0.0847100653973181 23.58746587928939 0.0010099404622214 35.794472971785744 0.1166216953265951 -5.134846281116879 0.0010706547235285 24.735814346937172
0.0011804579852311 -1.565428705242939 0.084131618797247 25.502342187886114 0.0010706546078606 24.73580837688888 0.1132460082031105 -1.3520197711682937
140.0 0.1218343404880181 -15.265363934873342 0.0015272409054715 -24.7062154535304 0.0974583980880655 10.955239918525441 0.0013389725035488 -13.138916405461561
0.0015272408378881 -24.706219461694356 0.1197092144002469 -12.236639174791321 0.0012005949424624 11.98863472150339 0.0971873428209867 12.282156145136701
0.0974584924986127 10.955271766258726 0.001200594934831 11.988654862149573 0.123523216294011 -14.252531860685055 0.0011598732248236 7.489374031345679
0.0013389723139737 -13.138901453067696 0.0971874320381524 12.282183781667191 0.0011598731230396 7.489371074199796 0.1211253258715489 -11.311187274765564
150.0 0.1196735977992122 -25.205573892861025 0.0016545304657898 -44.29891148448501 0.1040786481660455 -2.5246057268078292 0.0014629049365447 -24.24694082763627
0.0016545304084739 -44.298913526592315 0.1183394018167096 -22.8897999827768 0.0013755643368168 -9.646552530841188 0.1039737174151434 -1.6901291529155624
0.1040787287855509 -2.524589867458366 0.0013755643628997 -9.646534929427654 0.1216748453203987 -24.164232553056543 0.0012191923468316 -8.892223288452387
0.0014629048423524 -24.24692535522899 0.1039737943446177 -1.6901152157338861 0.0012191922777975 -8.892224164824896 0.1198961311477407 -22.07224668596886
160.0 0.1087069822608543 -34.74482368416039 0.0017232540451244 -63.244902365542146 0.103918256266027 -16.281672532889885 0.0015571409892938 -34.719034361727516
0.0017232540073987 -63.244902941491304 0.1077813098356026 -33.31690378374149 0.0015240436964063 -30.02194278030843 0.1038801822577104 -15.939383754773598
0.1039183250905134 -16.281665284061578 0.0015240437666733 -30.02192767826176 0.1109932745236109 -33.699075236931606 0.001250848285152 -24.48419168847528
0.0015571410095502 -34.71901987844203 0.1038802499000407 -15.93937662203127 0.0012508482595676 -24.484191413982398 0.1094581839244959 -32.59717051798917
170.0 0.0901239322167396 -42.17564246406954 0.0017300165814584 -81.74153030479992 0.0969336921853487 -29.83439771999833 0.0016270197234923 -44.476626267396526
0.0017300165706837 -81.74152979994857 0.0890356153164225 -42.0314705481541 0.0016361220294195 -49.679319822542276 0.0968638569743599 -30.070131417917047
0.0969337517274606 -29.83439640844704 0.0016361221401591 -49.67930725075747 0.0926250335728649 -41.220183134222104 0.0012559365716244 -39.358426721084605
0.0016270198478189 -44.47661423649186 0.0968639183949783 -30.07012875901516 0.0012559365921443 -39.358426163713474 0.0907885676450609 -41.4748247315755
180.0 0.0671092250097223 -43.61241355094327 0.0016727078207751 -99.87689344379534 0.0838037897903599 -42.48763712675956 0.0016791426842406 -53.44562074830255
0.0016727078411315 -99.87689218309409 0.064776765693507 -45.47415136820863 0.0017024964775881 -68.91891297348323 0.0835537487527544 -43.51169774755959
0.083803840954419 -42.48764176823884 0.0017024966153445 -68.91890289868333 0.0696445287667414 -43.081465239464585 0.0012347246933661 -53.49900881782568
0.0016791428779334 -53.445612142059375 0.083553805060281 -43.51169981538296 0.0012347247555007 -53.49900877928359 0.066460489462956 -45.350936806082856
190.0 0.0480149197147186 -29.605809304047508 0.0015520316631257 -117.61550174732658 0.0660563438399849 -52.86291617618251 0.001723389464859 -61.59320109775138
0.0015520317150561 -117.61550002818443 0.0423045289309082 -32.619501133139586 0.0017161152060085 -87.87837154540163 0.0653600815424104 -55.116075336828274
0.0660563854824232 -52.86292913400166 0.001716115351954 -87.87836385210161 0.0499834650443762 -30.463121230481338 0.001188667176344 -66.75106431378306
0.0017233896799231 -61.59319614224944 0.0653601315781875 -55.1160848645566 0.0011886672691875 -66.75106554748729 0.0433753393457882 -33.793627624569154
200.0 0.0496038303407422 -0.9628958118006433 0.0013736079484626 -134.7803743616422 0.0463363684315034 -57.50236421826668 0.0017725744374725 -69.06524078605966
0.0013736080286743 -134.78037248947592 0.0410689836106305 3.631117535920829 0.0016743562761192 -106.61034076415297 0.0446366645534862 -61.823353969804494
0.0463363972266265 -57.50239170819762 0.0016743564100879 -106.61033525036308 0.0499899571251223 -2.547273938765973 0.0011227929937548 -78.8527536505453
0.0017725746276791 -69.06523885321948 0.0446367048242034 -61.82337936252043 0.0011227931006504 -78.85275684274615 0.0405207718992295 2.2124564114056264
210.0 0.0713963539543094 10.961009902255535 0.0011490935032932 -151.03034147013122 0.0298261103690906 -46.598408524078486 0.0018369345722808 -76.28020320064503
0.0011490936052715 -151.03033982020105 0.0638096644509989 19.083521255002903 0.0015799565638281 -125.17835961069919 0.0258862925120205 -52.650409536407295
0.0298261194333642 -46.598458823042485 0.0015799566683797 -125.17835597478322 0.0709356967931528 10.518586944598912 0.0010460505215602 -89.57668491739369
0.0018369347089487 -76.28020302076374 0.0258863136553076 -52.65047698479645 0.0010460506217773 -89.57669055467616 0.0626344954080268 19.21474443016826
220.0 0.0972077243523307 7.9201546700567755 0.000895170488759 -165.78284090493082 0.0272184214929233 -14.688254123645988 0.0019161258375181 -83.79243715651225
0.0008951706035864 -165.78284006918187 0.0907236255522343 16.051752288344034 0.001439649054294 -143.77292264679411 0.0215807983755428 -10.723558877896897
0.0272184109775933 -14.688286112570806 0.0014396491182784 -143.77292048656074 0.096803560647143 8.202127708808613 0.0009679417111089 -98.92772849390711
0.001916125917329 -83.79243739999765 0.021580786179808 -10.72362644729437 0.0009679417838244 -98.9277366112913 0.0897209044189539 16.814116189072852
230.0 0.1188502219711312 -1.1476808101311473 0.0006308232272485 -177.8783034566031 0.0387343321399896 0.6369779603140274 0.0019961302017056 -91.97581392585856
0.0006308233440805 -177.87830470895202 0.1131897823148165 6.746886534054437 0.0012612762478888 -162.85654145955962 0.0344381944605602 8.710481478945239
0.0387343233833422 0.6369735775305034 0.0012612762682291 -162.85654031359607 0.1189138795550461 -0.4932674751999736 0.0008927288599865 -107.2153222207177
0.0019961302409258 -91.97581374003637 0.0344381779553115 8.710465865781975 0.0008927288901433 -107.21533222762983 0.112667365741363 7.804688233299961
240.0 0.1326841480908919 -12.747105119021713 0.0003756189307661 176.13185626224572 0.0524409246405006 -1.6815780349286242 0.0020544262243116 -100.80940690494376
0.0003756190343616 176.1318487990133 0.1277276541536107 -4.9064958873460975 0.0010517500710053 176.5829269982433 0.0491525175611178 5.7337777229997
0.0524409240170688 -1.6815780153178548 0.001051750051922 176.58292753876344 0.1334312046345662 -11.8774930868889 0.0008156444832133 -114.78170378082594
0.0020544262456959 -100.80940601683497 0.0491525082425491 5.733772412934868 0.0008156444657514 -114.78171462241211 0.1278815761032458 -3.6461572598384047
250.0 0.1368906433979897 -25.489971222835724 0.0001664578142069 -164.38463748752181 0.0633457077317528 -10.607602255759275 0.0020693618948076 -109.87416741625017
0.0001664578533703 -164.38467200149935 0.13262279717138 -17.46885119676422 0.0008193638541105 152.33492714861518 0.060658142922587 -3.849395521490448
0.0633457144636185 -10.60760334608233 0.0008193638044858 152.33492715961822 0.1384435860773442 -24.488051800759138 0.0007253800580232 -121.36450329261876
0.0020693619173549 -109.87416592566565 0.0606581411160408 -3.8493998362195345 0.0007253799971498 -121.36451378069354 0.1336081616538418 -16.0269596113708
260.0 0.1307670872408661 -38.6663706253704 0.000194174574805 -94.44094793136547 0.0698683466871602 -22.23196647025801 0.0020293113899775 -118.42012808020057
0.000194174481482 -94.4409568585487 0.1272440134184372 -30.180634266135076 0.0005894710436576 118.67511877249214 0.0675998794053425 -15.836093607041171
0.0698683588057855 -22.23196968049387 0.0005894709762359 118.67511697652866 0.1331783159011137 -37.59638221993608 0.0006141663411029 -125.11992581173757
0.002029311425086 -118.42012624208985 0.0675998836925877 -15.836099009346722 0.0006141662464987 -125.11993446469496 0.1291832274980494 -28.552227280272266
270.0 0.1145428425908929 -51.67961338461315 0.0003943817509836 -81.98601970573235 0.071503842697509 -35.108004429421506 0.0019413949104796 -125.40447306343694
0.0003943816681586 -81.98601587714283 0.1119053793902461 -42.30815747699609 0.0004650148637534 64.35853234168547 0.0695806686337217 -28.850432118910824
0.0715038580855859 -35.10800984980129 0.0004650148106409 64.35852478813351 0.1177892584337983 -50.62806751520777 0.0004994604149395 -121.02656006679076
0.0019413949624825 -125.40447118534195 0.0695806772215064 -28.850439177052294 0.0004994603032183 -121.02656362381587 0.1148817968625133 -40.48494326868134
280.0 0.0894050364275839 -63.518434271401055 0.0006221716627957 -85.75561569634213 0.0683888642923488 -48.49269322135047 0.0018405677117821 -129.65206111295683
0.0006221716030473 -85.75561155566018 0.0879763811366433 -52.46748968966767 0.0006179933941005 5.654356728158995 0.0667857289548349 -42.21713450478027
0.0683888809730684 -48.492700768963275 0.0006179933900222 5.654348824455045 0.0933631540900852 -62.681155121532896 0.0004659914780805 -103.7165196995791
0.0018405677798384 -129.6520595493447 0.0667857400443055 -42.2171434110489 0.0004659913910648 -103.71651424428823 0.0920253192307658 -50.49790197565894
290.0 0.0578117689460269 -71.02941992598417 0.0008731893392116 -93.81230689180178 0.061257224194922 -61.804659764866784 0.0017928034112604 -130.62701451981923
0.0008731893009579 -93.8123036759675 0.0585206289926744 -56.40844095977725 0.0009766618164683 -32.612904300582194 0.0599601286655002 -55.41312737034525
0.0612572404730883 -61.80466936556205 0.0009766618391597 -32.61290912552138 0.0621671261539848 -71.13416164603463 0.0006200662761434 -88.19000606477152
0.0017928034903773 -130.62701365219985 0.059960140632268 -55.413138246335755 0.0006200662472301 -88.18999929134436 0.0635853540237104 -54.81667361632652
300.0 0.0264816750889031 -55.29712895123521 0.0011489051743272 -104.26195189841555 0.0513949267231867 -74.4221906095573 0.0018717557314445 -129.84370285315595
0.0011489051531111 -104.2619496668832 0.0328228861882586 -35.71770047675342 0.0014177346290258 -60.34189237747651 0.050366698887312 -67.89359727193431
0.051394941291109 -74.42220222195002 0.0014177346616213 -60.34189547813851 0.029728389092025 -61.56963393176381 0.0009210960454662 -87.95300655044528
0.0018717558129168 -129.84370287827804 0.0503667104112579 -67.89361026090194 0.0009210960515928 -87.95300281482176 0.0377981333068109 -39.06931545597966
310.0 0.031269083125952 14.403000436316553 0.0014423409089975 -116.4769584152827 0.0404605697906587 -85.60832766417161 0.0021062519993755 -130.50641854345997
0.0014423408992657 -116.47695698413678 0.0397878544032122 12.905929425326235 0.0018862004869985 -84.05681928893488 0.0396001226502628 -79.0642249465413
0.04046058181989 -85.60834118778584 0.0018862005217994 -84.05682149992515 0.0275833906405445 9.170125118319433 0.0012865020315328 -97.0431861537295
0.0021062520736815 -130.50641927599685 0.0396001328224054 -79.06424020191119 0.0012865020504449 -97.04318441609355 0.0396272330287119 5.375695717949106
