! File created by SignalIntegrity v1.2.0: Signal and Power Integrity Tools
! https://github.com/TeledyneLeCroy/SignalIntegrity
# MHz S MA R 50.0
0.0 0.0275704604922989 -0.5267691301287597 1.43008773121e-05 179.29904541583645 0.0124524615059286 0.0334541183801085 0.0003545167402151 179.9913717969898
1.4297248481e-05 179.2988677770924 0.025804650343225 -0.5761730742353686 0.000405941127994 -179.97922886262165 0.0090915489287895 0.0268828644329254
0.0124604408188489 0.0334400261602501 0.0004059433186867 -179.97922884391795 0.0256022741307458 -0.5697391355934966 0.0004172300538549 179.99894312058532
0.0003545191680523 179.99137183356873 0.0090998911174375 0.0268761646058648 0.0004172286007539 179.99894278936867 0.0250284009091611 -0.5948713408175632
10.0 0.1020112452185745 25.18266780754138 7.04816425083e-05 150.03481568721853 0.0325303608857156 28.195315014588072 0.0004356984575203 144.92163432579662
7.04816425192e-05 150.0348156583139 0.1018275356280042 25.411110504762213 0.0006061334553852 -168.02129612847017 0.0320255334880294 33.16151752181731
0.0325303609040882 28.195315392430278 0.0006061334553656 -168.02129611225368 0.1005124390151436 26.027975416399823 0.0004107346312047 126.80724285049911
0.0004356984574153 144.92163433347125 0.0320255334932577 33.16151730343323 0.0004107346313313 126.80724284238126 0.10113150382219 25.682732362992294
20.0 0.1305614335239216 13.593801102813783 0.0001594525091931 114.2597685731718 0.0461722982151293 30.578595163873224 0.0005933660635265 116.16488332980416
0.0001594547778423 114.25953028325425 0.130425343762283 13.460390184553898 0.0008993640700428 173.54162797924673 0.0476986236601843 33.304866040862194
0.0461732104152041 30.585128839166845 0.0008993639115604 173.54164562890955 0.12914250722038 14.405427696146438 0.0004286869852504 82.8809864915621
0.0005933652803565 116.1649418369514 0.0477004446682878 33.311919253345195 0.0004286873824556 82.88121793663346 0.1297552864498719 13.54576008383678
30.0 0.1435941864418535 2.1987775827806297 0.0002682720766806 86.57869483884946 0.0598892397339475 23.42181486995095 0.0007882592952441 94.01792415809089
0.0002682715653983 86.57855777839653 0.1433906291109329 1.8147804235311722 0.0011162800257401 146.72203424904117 0.0622983405778463 24.351678715543766
0.0598902424120225 23.4217769574065 0.0011162799564817 146.72203678739675 0.1423464658276183 3.102845347447425 0.0004319642163566 46.87723123695985
0.0007882595119117 94.01792769354068 0.0622994488901281 24.351788045827067 0.0004319643583256 46.87715863652559 0.1426003831288224 1.7392908825533206
40.0 0.1454545864690917 -8.786559890601373 0.0003801146311786 61.93626816104613 0.068964921878709 12.143162345505694 0.0009867633176676 75.67983483228039
0.0003801146362908 61.93615638412435 0.1451726935771331 -9.438508226178541 0.0012339056189651 117.63639601137068 0.0714886194752368 11.989746862418624
0.0689658250530083 12.144214808963719 0.0012339060869118 117.63642220162914 0.1445126360825073 -7.744254516678801 0.0004059226431066 17.155542180557827
0.0009867626648374 75.67988295564324 0.0714893915465805 11.9909610978515 0.0004059227898035 17.155490531011687 0.1441003211226897 -9.642581512079262
50.0 0.1378336983322625 -19.030897880304654 0.0004825741955704 38.866416768729394 0.071448497397295 -0.4623114183332571 0.0011685493831231 59.761475662108715
0.0004825742884318 38.866397849449044 0.137397628180305 -20.04636280581735 0.0012652523241539 87.6642805544443 0.0736639077315166 -1.330156237020318
0.0714485581212667 -0.4621975256910067 0.0012652522938306 87.66427460669739 0.1373081989679953 -17.835035426951247 0.0003521490664044 -7.424995832157827
0.0011685494876418 59.761479506598654 0.0736639872306549 -1.3299457922942342 0.0003521491546686 -7.425020855050692 0.1359432429905739 -20.336156990828645
60.0 0.1222402866821246 -27.79110121667867 0.0005663379833091 16.733685540858936 0.0667721049487094 -12.932550886306528 0.0013232734930538 45.65751145467952
0.00056633806964 16.73367375551453 0.1214202246685979 -29.33433414239928 0.0012325737181676 56.932732257958754 0.0684708792034166 -14.385038891301779
0.066771966520013 -12.932567261817159 0.0012325737863441 56.93272828042227 0.1221952442692969 -26.439182042770735 0.0002791656050543 -26.987269954894252
0.0013232735378966 45.657503573968164 0.0684707893984775 -14.385058218257827 0.0002791655508946 -26.987340981897756 0.119565808728788 -29.649654419333494
70.0 0.1010644738075789 -33.46222280091258 0.0006240732714197 -4.75914748299392 0.0554031063946063 -23.600797537821634 0.0014480480476107 33.09279208136473
0.0006240732408854 -4.7591661523489055 0.0994012518618629 -35.7486287344911 0.0011591891688325 25.180101318709738 0.0564772968411672 -25.71912838330066
0.0554030729674611 -23.60085350520273 0.001159189561839 25.180103940801875 0.1015115306099373 -31.97633117962884 0.0001976886600116 -39.719048261808574
0.0014480482742491 33.0927844360241 0.0564770915390423 -25.719388093844195 0.0001976891467868 -39.71911999009916 0.0972005813577772 -35.971137959272504
80.0 0.0787952713082493 -32.69319001617814 0.0006508267038164 -25.675335785448485 0.0391719572155897 -28.33730977059458 0.0015456757491744 21.917763829340533
0.0006508269620186 -25.67537635235728 0.0755198715435084 -35.72795316616288 0.0010677201506832 -7.919768104539824 0.0394660121647707 -31.526545191127667
0.0391720953744986 -28.33733068675134 0.0010677202792009 -7.919780168731634 0.0796791898412135 -31.18606362818645 0.0001236507506799 -37.63997964351054
0.0015456758859829 21.91774742617382 0.0394660696705672 -31.526532929018217 0.000123651296147 -37.64019976399365 0.0731341614266686 -35.51524400525268
90.0 0.0639546479859546 -20.989428010982543 0.0006453634197682 -45.91277189247431 0.023836140462292 -11.764741115695093 0.0016226976420024 11.99831337125994
0.000645363575327 -45.912813822154654 0.0584188989392872 -23.16133044682268 0.0009793964985513 -42.516380119489504 0.0228124699650907 -16.100735442101776
0.0238361672902275 -11.764916074602798 0.0009793965991282 -42.51638674306751 0.0650673713583994 -19.78321196737797 9.93721108968e-05 -6.910449093319589
0.0016226976163163 11.998306111698993 0.0228124967365543 -16.10087172887397 9.93720129163e-05 -6.910767433504799 0.0563924105907029 -21.718648337576905
100.0 0.06616861502919 -3.8965413471847534 0.0006109131422444 -65.29564660834006 0.0267284380033132 31.883903849409222 0.0016867178982459 3.1690190772705766
0.0006109132084365 -65.29560157083677 0.0597963382200894 -2.5688838551908466 0.0009116983902843 -78.31295371385836 0.0249000805807484 32.17923527995672
0.0267283306496295 31.884517776135702 0.0009116982388911 -78.31295731811826 0.0671475515433068 -3.0518278236815135 0.0001492920410194 11.98313350236864
0.0016867179292895 3.1690252963555485 0.0248999381744174 32.179723638393625 0.0001492926343154 11.983162275869695 0.0590026372016114 -0.2619651765098709
110.0 0.0820444025629885 3.823583246690119 0.0005540693839096 -83.6718898148157 0.046065743293985 42.58790850729689 0.0017438299625257 -4.73468727065773
0.0005540695459131 -83.67183840624045 0.076741531046979 6.8675624304193175 0.0008738245790588 -114.41576749579137 0.0446618628422947 43.573779556786654
0.0460658368913443 42.58820342326478 0.0008738244427191 -114.4157726682269 0.0829728584296812 4.78414044930933 0.0002186362308257 8.326957793772584
0.0017438300060538 -4.734683405520568 0.0446618972001368 43.574052519278524 0.0002186368146387 8.326906095796398 0.0770664429390467 8.752451055779451
120.0 0.1005483181934711 1.8427965214527142 0.0004827507174946 -101.02952742479256 0.0671599831563943 36.33772240747565 0.0017996085869064 -11.850384616056221
0.0004827509675844 -101.02947043644227 0.0965998272302187 4.949284324021857 0.0008654637945708 -149.70572459664623 0.065965418878945 36.96466046462392
0.0671601278307844 36.337844288519186 0.000865463691883 -149.7057300513373 0.101709323040774 3.0379588569352096 0.0002788238990963 -2.633180196952261
0.0017996086219529 -11.850382119469396 0.0659655109420687 36.964784651357796 0.0002788244047761 -2.633252351869245 0.0975207959885563 6.342152653302972
130.0 0.1147716492778886 -5.201494683032885 0.0004031743046091 -117.45346673231128 0.0852874648549857 25.164917418671553 0.001859980622024 -18.26218242137649
0.0004031746287884 -117.45340560647081 0.1120155331116905 -2.4479173206552995 0.0008772795512207 176.60412555272285 0.0841315194954861 25.502284596597992
0.0852876056581574 25.164967445030015 0.0008772794882798 176.6041205824191 0.1163870420259287 -3.7791117737524074 0.0003194915741635 -15.457955525070703
0.0018599806452018 -18.262180591827534 0.084131618797247 25.502342187886114 0.0003194919763589 -15.458034488509515 0.1132460082031105 -1.3520197711682937
140.0 0.1214558348874255 -14.534962284512167 0.0003191039534135 -132.97733477598044 0.0984000179506622 12.1603624950991 0.0019332691547287 -24.08806074929123
0.0003191043256654 -132.97727131096622 0.1197092144002469 -12.236639174791321 0.0008969842875846 144.64943611130604 0.0971873428209867 12.282156145136701
0.0984001387592265 12.160382307242422 0.0008969842608634 144.64943200258554 0.1236846791982735 -12.8974542594888 0.0003372933976601 -27.799610172910185
0.0019332691698535 -24.088059228018523 0.0971874320381524 12.282183781667191 0.0003372936795123 -27.79969199533782 0.1211253258715489 -11.311187274765564
150.0 0.1192787790206275 -24.643363384426646 0.0002329619965886 -147.11011219326664 0.1052954077253379 -1.6289589106585656 0.0020289483746284 -29.566239874481205
0.0002329623854996 -147.11004793385368 0.1183394018167096 -22.8897999827768 0.0009135201486552 114.07910487089961 0.1039737174151434 -1.6901291529155624
0.1052955084482083 -1.6289517549255332 0.0009135201505868 114.07910179718064 0.122232405488102 -22.801552301526833 0.0003352757774895 -38.01911462616074
0.0020289483851643 -29.566238532799574 0.1039737943446177 -1.6901152157338861 0.0003352759294018 -38.01919673254337 0.1198961311477407 -22.07224668596886
160.0 0.108194929547541 -34.344354747885774 0.0001486391317642 -157.34286914535468 0.1053320956077555 -15.693330467804001 0.0021538987874048 -35.053835980564195
0.0001486395118697 -157.34280981038228 0.1077813098356026 -33.31690378374149 0.000918613908867 84.34461928475415 0.1038801822577104 -15.939383754773598
0.1053321811368888 -15.693328797777127 0.000918613931719 84.34461733419916 0.1119298806473449 -32.33012945075998 0.0003233571826919 -44.787652107704645
0.0021538987944645 -35.053834748683485 0.1038802499000407 -15.93937662203127 0.0003233572060859 -44.78772984785574 0.1094581839244959 -32.59717051798917
170.0 0.0893926897087114 -41.941509606088275 7.77633384346e-05 -152.04851548714487 0.0984451142985402 -29.606545029250206 0.0023087752253842 -40.91497365035607
7.77636828333e-05 -152.0485291169336 0.0890356153164225 -42.0314705481541 0.0009070357451306 54.88881517686518 0.0968638569743599 -30.070131417917047
0.0984451892203365 -29.60654648004776 0.0009070357822657 54.888814379381046 0.0938877411625205 -39.88382310755064 0.0003164654699186 -47.80222460980371
0.0023087752302125 -40.914972448636355 0.0968639183949783 -30.07012875901516 0.0003164653867521 -47.802290021528464 0.0907885676450609 -41.4748247315755
180.0 0.066031689973724 -43.484573998718986 6.05785653098e-05 -109.91033929530484 0.0852580695744596 -42.760554854737855 0.0024872800161812 -47.38125992454911
6.05786974084e-05 -109.9105728906228 0.064776765693507 -45.47415136820863 0.0008768769009307 25.226540922555145 0.0835537487527544 -43.51169774755959
0.085258136241985 -42.76055962855735 0.0008768769462496 25.226541244740872 0.0711042385259704 -41.94757856008211 0.0003270719059959 -48.84456698988562
0.0024872800220109 -47.38125870808757 0.083553805060281 -43.51169981538296 0.0003270717632642 -48.844614112868264 0.066460489462956 -45.350936806082856
190.0 0.046555039501629 -28.92868856282966 9.25756536164e-05 -97.83943512770952 0.067203473205495 -53.95103060556453 0.0026790646342728 -54.49468166046771
9.25756691802e-05 -97.83957317210685 0.0423045289309082 -32.619501133139586 0.0008301146578662 -5.033060669157482 0.0653600815424104 -55.116075336828274
0.0672035315506215 -53.95104124323256 0.0008301147048847 -5.033059320692578 0.0512766063457454 -30.077724985209816 0.0003567110659359 -50.628424857292025
0.0026790646448027 -54.49468045578755 0.0653601315781875 -55.1160848645566 0.000356710912838 -50.62845615843716 0.0433753393457882 -33.793627624569154
200.0 0.0484819708571513 1.096043788328527 0.0001133809466773 -110.3377866968454 0.0467165284438205 -60.08217777130635 0.0028741116625877 -62.163004100169914
0.0001133809787041 -110.33787842156482 0.0410689836106305 3.631117535920829 0.0007728800309197 -36.17775951171716 0.0446366645534862 -61.823353969804494
0.0467165760477426 -60.08220213751489 0.0007728800726688 -36.17775728837702 0.0504859921860281 -2.7275949126976817 0.0003988746082189 -54.29521382596877
0.0028741116792971 -62.16300296956363 0.0446367048242034 -61.82337936252043 0.0003988744691513 -54.2952360797941 0.0405207718992295 2.2124564114056264
210.0 0.0709563417830081 13.013110549555838 0.0001080886552785 -131.7608954836445 0.0284553377573117 -51.1265907501434 0.0030650687870673 -70.2637362478048
0.0001080887354103 -131.76097403349036 0.0638096644509989 19.083521255002903 0.000714584834028 -68.34700880048823 0.0258862925120205 -52.650409536407295
0.0284553667834659 -51.12665337614384 0.0007145848640824 -68.34700594372758 0.0710237194122403 10.94220929413764 0.0004487168928043 -59.54372731324918
0.0030650688087711 -70.2637352283885 0.0258863136553076 -52.65047698479645 0.0004487167670647 -59.5437455118715 0.0626344954080268 19.21474443016826
220.0 0.0971613728442392 9.697322707439014 7.9089895835e-05 -164.25170352744811 0.0239383582608914 -14.449497259893855 0.00324589184473 -78.70722246469288
7.90900383117e-05 -164.25177354621349 0.0907236255522343 16.051752288344034 0.0006655113568495 -101.40951520286477 0.0215807983755428 -10.723558877896897
0.0239383547139679 -14.449575949056465 0.000665511370938 -101.40951210332672 0.0971061646808091 9.083132136467007 0.0005057881048361 -66.0621028994349
0.003245891869654 -78.7072215482863 0.021580786179808 -10.72362644729437 0.0005057879803385 -66.06211909154015 0.0897209044189539 16.814116189072852
230.0 0.1189851718861783 0.4683520534233936 5.4379992659e-05 126.51894457951396 0.0358988106167462 4.729292672103696 0.0034090524398007 -87.42141299753104
5.43801591172e-05 126.51902678976688 0.1131897823148165 6.746886534054437 0.0006333582030616 -134.82810328568397 0.0344381944605602 8.710481478945239
0.0358987976667273 4.729259926169123 0.0006333582003305 -134.82810046893357 0.1197489231712088 0.6595923779629067 0.0005697256538472 -73.94746769145961
0.0034090524675533 -87.4214121581662 0.0344381779553115 8.710465865781975 0.0005697255194967 -73.9474821401752 0.112667365741363 7.804688233299961
240.0 0.1328563575310193 -11.187241991531966 0.0001011974088197 55.54575452937912 0.0504492673625695 2.7814661492925126 0.0035451224371835 -96.29622147124161
0.0001011974357905 55.54586326094555 0.1277276541536107 -4.9064958873460975 0.0006202518376678 -167.7351698506223 0.0491525175611178 5.7337777229997
0.0504492591372148 2.781448217987285 0.0006202518206945 -167.73516779769903 0.134968740240141 -10.520126422802857 0.0006362387428616 -83.31827859040527
0.0035451224686871 -96.29622069927417 0.0491525082425491 5.733772412934868 0.0006362385943369 -83.31829105118682 0.1278815761032458 -3.6461572598384047
250.0 0.1369983902082131 -23.892870139506996 0.0001905990600952 23.008531575060513 0.0621476167793064 -6.166150657124247 0.0036459972288373 -105.14929291253915
0.0001905990328965 23.00859050228256 0.13262279717138 -17.46885119676422 0.0006221124548223 160.6842677446167 0.060658142922587 -3.849395521490448
0.0621476149239039 -6.166164871677595 0.000622112428216 160.6842688058114 0.1407811707785703 -22.933184936388674 0.0006973428642889 -93.99117896482649
0.003645997264832 -105.14929222356615 0.0606581411160408 -3.8493998362195345 0.0006973427036001 -93.99118931259946 0.1336081616538418 -16.0269596113708
260.0 0.1307531992766012 -36.924771810750265 0.0002980190889379 0.8110509893482379 0.0694490301437146 -17.747725861547227 0.0037097970564425 -113.74181807361343
0.0002980190483946 0.8110875900935014 0.1272440134184372 -30.180634266135076 0.0006306726162164 130.8277631666312 0.0675998794053425 -15.836093607041171
0.0694490337253273 -17.747739559492825 0.0006306725848353 130.82776327744233 0.1363714834458037 -35.814788245250284 0.0007444173225318 -105.49454835002973
0.0037097970962896 -113.7418174941618 0.0675998836925877 -15.836099009346722 0.000744417155071 -105.49455664130106 0.1291832274980494 -28.552227280272266
270.0 0.1144100293900346 -49.63304569510749 0.0004178685403872 -18.246311324534652 0.0718757378620888 -30.467603257984557 0.0037444199996215 -121.84011031172783
0.0004178685010963 -18.24628656156973 0.1119053793902461 -42.30815747699609 0.0006362848712471 102.65090979144746 0.0695806686337217 -28.850432118910824
0.0718757453303649 -30.467617584212995 0.0006362848390805 102.65090911885643 0.1218649699104376 -48.56015555520104 0.0007714497728753 -117.2130334098895
0.003744420041362 -121.8401098595146 0.0695806772215064 -28.850439177052294 0.0007714496049074 -117.21303975822391 0.1148817968625133 -40.48494326868134
280.0 0.0892529761739524 -60.85490539856439 0.000545777341074 -36.23549255592476 0.0695651829499229 -43.58413846872686 0.0037671383907253 -129.30551964240112
0.0005457773081613 -36.23547504827437 0.0879763811366433 -52.46748968966767 0.0006299129027673 75.87725408608628 0.0667857289548349 -42.21713450478027
0.0695651926665274 -43.58415393693904 0.0006299128725345 75.8772527882603 0.0983301380190594 -60.243597745516425 0.0007771847211507 -128.51223057734992
0.0037671384321495 -129.3055193160283 0.0667857400443055 -42.2171434110489 0.0007771845585418 -128.51223505530012 0.0920253192307658 -50.49790197565894
290.0 0.0579897883595875 -66.93187104615964 0.0006748358529344 -53.914283819296195 0.0632317385596765 -56.53022328344097 0.0037989690793562 -136.17217899763793
0.0006748358272319 -53.91427109641755 0.0585206289926744 -56.40844095977725 0.0006043034429316 50.19987052706164 0.0599601286655002 -55.41312737034525
0.0632317490259491 -56.530240195357834 0.0006043034160369 50.199868695660086 0.068044882317451 -68.36165814940966 0.0007655873684365 -138.84702836980864
0.0037989691190956 -136.17217878155833 0.059960140632268 -55.413138246335755 0.0007655872163192 -138.84703098715312 0.0635853540237104 -54.81667361632652
300.0 0.0285587839617885 -48.075414541637 0.0007953887635783 -71.47913007656845 0.0541267834966625 -68.73061620287474 0.0038559888064613 -142.64351841011495
0.0007953887443243 -71.47912060459727 0.0328228861882586 -35.71770047675342 0.0005548420941812 25.37766928643312 0.050366698887312 -67.89359727193431
0.0541267935014965 -68.73063477005378 0.0005548420708789 25.37766693980239 0.0363530453345293 -61.51527181164213 0.0007442681485105 -147.8740488497147
0.0038559888441578 -142.6435182889356 0.0503667104112579 -67.89361026090194 0.0007442680113561 -147.87404960498347 0.0377981333068109 -39.06931545597966
310.0 0.0349518558887716 12.518167286685403 0.0008971341849569 -88.83615744306974 0.0438567740480686 -79.59185223312306 0.0039438406578539 -148.98074046937666
0.0008971341712738 -88.83615020467848 0.0397878544032122 12.905929425326235 0.0004800991600628 1.2355994336589975 0.0396001226502628 -79.0642249465413
0.0438567827893236 -79.59187254061537 0.0004800991398389 1.2355965144712229 0.0282545312094847 -3.663575154621323 0.0007215231920777 -155.52350528701155
0.003943840693362 -148.9807404363745 0.0396001328224054 -79.06424020191119 0.0007215230736952 -155.52350426412124 0.0396272330287119 5.375695717949106
